HEADER
"PSFversion" "1.00"
"simulator" "spectre"
"version" "25.1.0.235.isr5"
"date" "5:02:12 PM, Sat Jul 18, 2026"
"design" "// tb_m0.scs -- M0 feasibility testbench for CircuitInsight (SKY130)"
"analysis type" "ac"
"analysis name" "ac"
"analysis description" "AC Analysis `ac': freq = (1 kHz -> 10 GHz)"
"xVecSorted" "ascending"
"tolerance.relative" 1.000000000000000e-03
"start" 1.000000000000000e+03
"stop" 1.000000000000000e+10
"operating point producer" "dcOp"
TYPE
"sweep" FLOAT DOUBLE PROP(
"key" "sweep"
)
"V" COMPLEX DOUBLE PROP(
"units" "V"
"key" "node"
"tolerance" 1.000000000000000e-06
)
"I" COMPLEX DOUBLE PROP(
"units" "A"
"key" "branch"
"tolerance" 1.000000000000000e-12
)
"MMF" COMPLEX DOUBLE PROP(
"units" "A*turn"
"key" "node"
"tolerance" 1.000000000000000e-12
)
"Wb" COMPLEX DOUBLE PROP(
"units" "Wb"
"key" "node"
"tolerance" 1.000000000000000e-09
)
"Temp" COMPLEX DOUBLE PROP(
"units" "C"
"key" "node"
"tolerance" 1.000000000000000e-04
)
"Pwr" COMPLEX DOUBLE PROP(
"units" "W"
"key" "node"
"tolerance" 1.000000000000000e-09
)
"U" COMPLEX DOUBLE PROP(
"units" ""
"key" "node"
"tolerance" 1.000000000000000e-06
)
"V/Sec" COMPLEX DOUBLE PROP(
"units" "V/s"
"key" "node"
"tolerance" 9.999999999999999e-05
)
"I/Sec" COMPLEX DOUBLE PROP(
"units" "A/s"
"key" "node"
"tolerance" 1.000000000000000e-06
)
"1/Sec" COMPLEX DOUBLE PROP(
"units" "1/s"
"key" "node"
"tolerance" 9.999999999999999e-05
)
"HOD" COMPLEX DOUBLE PROP(
"units" ""
"key" "node"
"tolerance" 1.000000000000000e-02
)
"Q" COMPLEX DOUBLE PROP(
"units" "Coul"
"key" "node"
"tolerance" 1.000000000000000e-15
)
"Efield" COMPLEX DOUBLE PROP(
"units" "V/m"
"key" "node"
"tolerance" 1.000000000000000e-06
"sigtype" "optical"
)
SWEEP
"freq" "sweep" PROP(
"sweep_direction" 0
"units" "Hz"
"plot" 0
"grid" 3
)
TRACE
"vdd" "V"
"vin" "V"
"vinp" "V"
"vmid" "V"
"vout" "V"
"voutp" "V"
"VDD:p" "I"
"VIN:p" "I"
"VINP:p" "I"
VALUE
"freq" 1.000000000000000e+03
"vdd" (0.000000000000000e+00 0.000000000000000e+00)
"vin" (1.000000000000000e+00 0.000000000000000e+00)
"vinp" (0.000000000000000e+00 0.000000000000000e+00)
"vmid" (0.000000000000000e+00 0.000000000000000e+00)
"vout" (-3.654213458907056e+00 2.039937644181510e-05)
"voutp" (0.000000000000000e+00 0.000000000000000e+00)
"VDD:p" (-3.654213458907056e-04 2.039937644181511e-09)
"VIN:p" (-6.304271721481960e-17 -2.904942792502286e-11)
"VINP:p" (0.000000000000000e+00 0.000000000000000e+00)
"freq" 1.122018454301963e+03
"vdd" (0.000000000000000e+00 0.000000000000000e+00)
"vin" (1.000000000000000e+00 0.000000000000000e+00)
"vinp" (0.000000000000000e+00 0.000000000000000e+00)
"vmid" (0.000000000000000e+00 0.000000000000000e+00)
"vout" (-3.654213458877654e+00 2.288847682378563e-05)
"voutp" (0.000000000000000e+00 0.000000000000000e+00)
"VDD:p" (-3.654213458877655e-04 2.288847682378563e-09)
"VIN:p" (-7.936607872965323e-17 -3.259399421868849e-11)
"VINP:p" (0.000000000000000e+00 0.000000000000000e+00)
"freq" 1.258925411794167e+03
"vdd" (0.000000000000000e+00 0.000000000000000e+00)
"vin" (1.000000000000000e+00 0.000000000000000e+00)
"vinp" (0.000000000000000e+00 0.000000000000000e+00)
"vmid" (0.000000000000000e+00 0.000000000000000e+00)
"vout" (-3.654213458840640e+00 2.568129338689088e-05)
"voutp" (0.000000000000000e+00 0.000000000000000e+00)
"VDD:p" (-3.654213458840640e-04 2.568129338689088e-09)
"VIN:p" (-9.991597334620784e-17 -3.657106301263599e-11)
"VINP:p" (0.000000000000000e+00 0.000000000000000e+00)
"freq" 1.412537544622754e+03
"vdd" (0.000000000000000e+00 0.000000000000000e+00)
"vin" (1.000000000000000e+00 0.000000000000000e+00)
"vinp" (0.000000000000000e+00 0.000000000000000e+00)
"vmid" (0.000000000000000e+00 0.000000000000000e+00)
"vout" (-3.654213458794041e+00 2.881488511006813e-05)
"voutp" (0.000000000000000e+00 0.000000000000000e+00)
"VDD:p" (-3.654213458794042e-04 2.881488511006814e-09)
"VIN:p" (-1.257867578880902e-16 -4.103340759341411e-11)
"VINP:p" (0.000000000000000e+00 0.000000000000000e+00)
"freq" 1.584893192461113e+03
"vdd" (0.000000000000000e+00 0.000000000000000e+00)
"vin" (1.000000000000000e+00 0.000000000000000e+00)
"vinp" (0.000000000000000e+00 0.000000000000000e+00)
"vmid" (0.000000000000000e+00 0.000000000000000e+00)
"vout" (-3.654213458735376e+00 3.233083285156973e-05)
"voutp" (0.000000000000000e+00 0.000000000000000e+00)
"VDD:p" (-3.654213458735377e-04 3.233083285156973e-09)
"VIN:p" (-1.583561459699821e-16 -4.604024056241760e-11)
"VINP:p" (0.000000000000000e+00 0.000000000000000e+00)
"freq" 1.778279410038922e+03
"vdd" (0.000000000000000e+00 0.000000000000000e+00)
"vin" (1.000000000000000e+00 0.000000000000000e+00)
"vinp" (0.000000000000000e+00 0.000000000000000e+00)
"vmid" (0.000000000000000e+00 0.000000000000000e+00)
"vout" (-3.654213458661523e+00 3.627579110168237e-05)
"voutp" (0.000000000000000e+00 0.000000000000000e+00)
"VDD:p" (-3.654213458661523e-04 3.627579110168237e-09)
"VIN:p" (-1.993585762713794e-16 -5.165799955112849e-11)
"VINP:p" (0.000000000000000e+00 0.000000000000000e+00)
"freq" 1.995262314968879e+03
"vdd" (0.000000000000000e+00 0.000000000000000e+00)
"vin" (1.000000000000000e+00 0.000000000000000e+00)
"vinp" (0.000000000000000e+00 0.000000000000000e+00)
"vmid" (0.000000000000000e+00 0.000000000000000e+00)
"vout" (-3.654213458568546e+00 4.070210705945792e-05)
"voutp" (0.000000000000000e+00 0.000000000000000e+00)
"VDD:p" (-3.654213458568547e-04 4.070210705945792e-09)
"VIN:p" (-2.509775777207776e-16 -5.796122880811538e-11)
"VINP:p" (0.000000000000000e+00 0.000000000000000e+00)
"freq" 2.238721138568338e+03
"vdd" (0.000000000000000e+00 0.000000000000000e+00)
"vin" (1.000000000000000e+00 0.000000000000000e+00)
"vinp" (0.000000000000000e+00 0.000000000000000e+00)
"vmid" (0.000000000000000e+00 0.000000000000000e+00)
"vout" (-3.654213458451496e+00 4.566851524822733e-05)
"voutp" (0.000000000000000e+00 0.000000000000000e+00)
"VDD:p" (-3.654213458451496e-04 4.566851524822733e-09)
"VIN:p" (-3.159620503731406e-16 -6.503356835591423e-11)
"VINP:p" (0.000000000000000e+00 0.000000000000000e+00)
"freq" 2.511886431509578e+03
"vdd" (0.000000000000000e+00 0.000000000000000e+00)
"vin" (1.000000000000000e+00 0.000000000000000e+00)
"vinp" (0.000000000000000e+00 0.000000000000000e+00)
"vmid" (0.000000000000000e+00 0.000000000000000e+00)
"vout" (-3.654213458304138e+00 5.124091688702127e-05)
"voutp" (0.000000000000000e+00 0.000000000000000e+00)
"VDD:p" (-3.654213458304138e-04 5.124091688702128e-09)
"VIN:p" (-3.977726543613410e-16 -7.296886384330007e-11)
"VINP:p" (0.000000000000000e+00 0.000000000000000e+00)
"freq" 2.818382931264452e+03
"vdd" (0.000000000000000e+00 0.000000000000000e+00)
"vin" (1.000000000000000e+00 0.000000000000000e+00)
"vinp" (0.000000000000000e+00 0.000000000000000e+00)
"vmid" (0.000000000000000e+00 0.000000000000000e+00)
"vout" (-3.654213458118626e+00 5.749325435968053e-05)
"voutp" (0.000000000000000e+00 0.000000000000000e+00)
"VDD:p" (-3.654213458118626e-04 5.749325435968054e-09)
"VIN:p" (-5.007661026669601e-16 -8.187241182001414e-11)
"VINP:p" (0.000000000000000e+00 0.000000000000000e+00)
"freq" 3.162277660168377e+03
"vdd" (0.000000000000000e+00 0.000000000000000e+00)
"vin" (1.000000000000000e+00 0.000000000000000e+00)
"vinp" (0.000000000000000e+00 0.000000000000000e+00)
"vmid" (0.000000000000000e+00 0.000000000000000e+00)
"vout" (-3.654213457885080e+00 6.450849238532732e-05)
"voutp" (0.000000000000000e+00 0.000000000000000e+00)
"VDD:p" (-3.654213457885080e-04 6.450849238532732e-09)
"VIN:p" (-6.304271719723868e-16 -9.186235695798367e-11)
"VINP:p" (0.000000000000000e+00 0.000000000000000e+00)
"freq" 3.548133892335752e+03
"vdd" (0.000000000000000e+00 0.000000000000000e+00)
"vin" (1.000000000000000e+00 0.000000000000000e+00)
"vinp" (0.000000000000000e+00 0.000000000000000e+00)
"vmid" (0.000000000000000e+00 0.000000000000000e+00)
"vout" (-3.654213457591061e+00 7.237971890972788e-05)
"voutp" (0.000000000000000e+00 0.000000000000000e+00)
"VDD:p" (-3.654213457591062e-04 7.237971890972789e-09)
"VIN:p" (-7.936607870178936e-16 -1.030712597593081e-10)
"VINP:p" (0.000000000000000e+00 0.000000000000000e+00)
"freq" 3.981071705534969e+03
"vdd" (0.000000000000000e+00 0.000000000000000e+00)
"vin" (1.000000000000000e+00 0.000000000000000e+00)
"vinp" (0.000000000000000e+00 0.000000000000000e+00)
"vmid" (0.000000000000000e+00 0.000000000000000e+00)
"vout" (-3.654213457220915e+00 8.121138032570078e-05)
"voutp" (0.000000000000000e+00 0.000000000000000e+00)
"VDD:p" (-3.654213457220915e-04 8.121138032570078e-09)
"VIN:p" (-9.991597330204657e-16 -1.156478555535411e-10)
"VINP:p" (0.000000000000000e+00 0.000000000000000e+00)
"freq" 4.466835921509626e+03
"vdd" (0.000000000000000e+00 0.000000000000000e+00)
"vin" (1.000000000000000e+00 0.000000000000000e+00)
"vinp" (0.000000000000000e+00 0.000000000000000e+00)
"vmid" (0.000000000000000e+00 0.000000000000000e+00)
"vout" (-3.654213456754929e+00 9.112066741318510e-05)
"voutp" (0.000000000000000e+00 0.000000000000000e+00)
"VDD:p" (-3.654213456754929e-04 9.112066741318511e-09)
"VIN:p" (-1.257867578180994e-15 -1.297590281250882e-10)
"VINP:p" (0.000000000000000e+00 0.000000000000000e+00)
"freq" 5.011872336272717e+03
"vdd" (0.000000000000000e+00 0.000000000000000e+00)
"vin" (1.000000000000000e+00 0.000000000000000e+00)
"vinp" (0.000000000000000e+00 0.000000000000000e+00)
"vmid" (0.000000000000000e+00 0.000000000000000e+00)
"vout" (-3.654213456168287e+00 1.022390703895388e-04)
"voutp" (0.000000000000000e+00 0.000000000000000e+00)
"VDD:p" (-3.654213456168287e-04 1.022390703895388e-08)
"VIN:p" (-1.583561458590544e-15 -1.455920241595501e-10)
"VINP:p" (0.000000000000000e+00 0.000000000000000e+00)
"freq" 5.623413251903484e+03
"vdd" (0.000000000000000e+00 0.000000000000000e+00)
"vin" (1.000000000000000e+00 0.000000000000000e+00)
"vinp" (0.000000000000000e+00 0.000000000000000e+00)
"vmid" (0.000000000000000e+00 0.000000000000000e+00)
"vout" (-3.654213455429748e+00 1.147141237046216e-04)
"voutp" (0.000000000000000e+00 0.000000000000000e+00)
"VDD:p" (-3.654213455429748e-04 1.147141237046216e-08)
"VIN:p" (-1.993585760955707e-15 -1.633569378933577e-10)
"VINP:p" (0.000000000000000e+00 0.000000000000000e+00)
"freq" 6.309573444801924e+03
"vdd" (0.000000000000000e+00 0.000000000000000e+00)
"vin" (1.000000000000000e+00 0.000000000000000e+00)
"vinp" (0.000000000000000e+00 0.000000000000000e+00)
"vmid" (0.000000000000000e+00 0.000000000000000e+00)
"vout" (-3.654213454499982e+00 1.287113637330084e-04)
"voutp" (0.000000000000000e+00 0.000000000000000e+00)
"VDD:p" (-3.654213454499982e-04 1.287113637330084e-08)
"VIN:p" (-2.509775774421398e-15 -1.832894989364773e-10)
"VINP:p" (0.000000000000000e+00 0.000000000000000e+00)
"freq" 7.079457843841369e+03
"vdd" (0.000000000000000e+00 0.000000000000000e+00)
"vin" (1.000000000000000e+00 0.000000000000000e+00)
"vinp" (0.000000000000000e+00 0.000000000000000e+00)
"vmid" (0.000000000000000e+00 0.000000000000000e+00)
"vout" (-3.654213453329477e+00 1.444165253406808e-04)
"voutp" (0.000000000000000e+00 0.000000000000000e+00)
"VDD:p" (-3.654213453329477e-04 1.444165253406808e-08)
"VIN:p" (-3.159620499315296e-15 -2.056542002608788e-10)
"VINP:p" (0.000000000000000e+00 0.000000000000000e+00)
"freq" 7.943282347242804e+03
"vdd" (0.000000000000000e+00 0.000000000000000e+00)
"vin" (1.000000000000000e+00 0.000000000000000e+00)
"vinp" (0.000000000000000e+00 0.000000000000000e+00)
"vmid" (0.000000000000000e+00 0.000000000000000e+00)
"vout" (-3.654213451855898e+00 1.620380064732550e-04)
"voutp" (0.000000000000000e+00 0.000000000000000e+00)
"VDD:p" (-3.654213451855898e-04 1.620380064732550e-08)
"VIN:p" (-3.977726536614351e-15 -2.307478078612443e-10)
"VINP:p" (0.000000000000000e+00 0.000000000000000e+00)
"freq" 8.912509381337442e+03
"vdd" (0.000000000000000e+00 0.000000000000000e+00)
"vin" (1.000000000000000e+00 0.000000000000000e+00)
"vinp" (0.000000000000000e+00 0.000000000000000e+00)
"vmid" (0.000000000000000e+00 0.000000000000000e+00)
"vout" (-3.654213450000772e+00 1.818096334692577e-04)
"voutp" (0.000000000000000e+00 0.000000000000000e+00)
"VDD:p" (-3.654213450000772e-04 1.818096334692577e-08)
"VIN:p" (-5.007661015576842e-15 -2.589032986589434e-10)
"VINP:p" (0.000000000000000e+00 0.000000000000000e+00)
"freq" 9.999999999999985e+03
"vdd" (0.000000000000000e+00 0.000000000000000e+00)
"vin" (1.000000000000000e+00 0.000000000000000e+00)
"vinp" (0.000000000000000e+00 0.000000000000000e+00)
"vmid" (0.000000000000000e+00 0.000000000000000e+00)
"vout" (-3.654213447665307e+00 2.039937637923795e-04)
"voutp" (0.000000000000000e+00 0.000000000000000e+00)
"VDD:p" (-3.654213447665308e-04 2.039937637923795e-08)
"VIN:p" (-6.304271702143030e-15 -2.904942789028117e-10)
"VINP:p" (0.000000000000000e+00 0.000000000000000e+00)
"freq" 1.122018454301962e+04
"vdd" (0.000000000000000e+00 0.000000000000000e+00)
"vin" (1.000000000000000e+00 0.000000000000000e+00)
"vinp" (0.000000000000000e+00 0.000000000000000e+00)
"vmid" (0.000000000000000e+00 0.000000000000000e+00)
"vout" (-3.654213444725132e+00 2.288847673539306e-04)
"voutp" (0.000000000000000e+00 0.000000000000000e+00)
"VDD:p" (-3.654213444725132e-04 2.288847673539306e-08)
"VIN:p" (-7.936607842315191e-15 -3.259399416961457e-10)
"VINP:p" (0.000000000000000e+00 0.000000000000000e+00)
"freq" 1.258925411794165e+04
"vdd" (0.000000000000000e+00 0.000000000000000e+00)
"vin" (1.000000000000000e+00 0.000000000000000e+00)
"vinp" (0.000000000000000e+00 0.000000000000000e+00)
"vmid" (0.000000000000000e+00 0.000000000000000e+00)
"vout" (-3.654213441023669e+00 2.568129326203305e-04)
"voutp" (0.000000000000000e+00 0.000000000000000e+00)
"VDD:p" (-3.654213441023669e-04 2.568129326203305e-08)
"VIN:p" (-9.991597286043591e-15 -3.657106294331724e-10)
"VINP:p" (0.000000000000000e+00 0.000000000000000e+00)
"freq" 1.412537544622752e+04
"vdd" (0.000000000000000e+00 0.000000000000000e+00)
"vin" (1.000000000000000e+00 0.000000000000000e+00)
"vinp" (0.000000000000000e+00 0.000000000000000e+00)
"vmid" (0.000000000000000e+00 0.000000000000000e+00)
"vout" (-3.654213436363805e+00 2.881488493370178e-04)
"voutp" (0.000000000000000e+00 0.000000000000000e+00)
"VDD:p" (-3.654213436363805e-04 2.881488493370178e-08)
"VIN:p" (-1.257867571181938e-14 -4.103340749549880e-10)
"VINP:p" (0.000000000000000e+00 0.000000000000000e+00)
"freq" 1.584893192461111e+04
"vdd" (0.000000000000000e+00 0.000000000000000e+00)
"vin" (1.000000000000000e+00 0.000000000000000e+00)
"vinp" (0.000000000000000e+00 0.000000000000000e+00)
"vmid" (0.000000000000000e+00 0.000000000000000e+00)
"vout" (-3.654213430497382e+00 3.233083260244568e-04)
"voutp" (0.000000000000000e+00 0.000000000000000e+00)
"VDD:p" (-3.654213430497382e-04 3.233083260244568e-08)
"VIN:p" (-1.583561447497788e-14 -4.604024042410858e-10)
"VINP:p" (0.000000000000000e+00 0.000000000000000e+00)
"freq" 1.778279410038919e+04
"vdd" (0.000000000000000e+00 0.000000000000000e+00)
"vin" (1.000000000000000e+00 0.000000000000000e+00)
"vinp" (0.000000000000000e+00 0.000000000000000e+00)
"vmid" (0.000000000000000e+00 0.000000000000000e+00)
"vout" (-3.654213423111993e+00 3.627579074978526e-04)
"voutp" (0.000000000000000e+00 0.000000000000000e+00)
"VDD:p" (-3.654213423111993e-04 3.627579074978527e-08)
"VIN:p" (-1.993585743374874e-14 -5.165799935576180e-10)
"VINP:p" (0.000000000000000e+00 0.000000000000000e+00)
"freq" 1.995262314968876e+04
"vdd" (0.000000000000000e+00 0.000000000000000e+00)
"vin" (1.000000000000000e+00 0.000000000000000e+00)
"vinp" (0.000000000000000e+00 0.000000000000000e+00)
"vmid" (0.000000000000000e+00 0.000000000000000e+00)
"vout" (-3.654213413814341e+00 4.070210656239007e-04)
"voutp" (0.000000000000000e+00 0.000000000000000e+00)
"VDD:p" (-3.654213413814341e-04 4.070210656239007e-08)
"VIN:p" (-2.509775746557656e-14 -5.796122853215264e-10)
"VINP:p" (0.000000000000000e+00 0.000000000000000e+00)
"freq" 2.238721138568335e+04
"vdd" (0.000000000000000e+00 0.000000000000000e+00)
"vin" (1.000000000000000e+00 0.000000000000000e+00)
"vinp" (0.000000000000000e+00 0.000000000000000e+00)
"vmid" (0.000000000000000e+00 0.000000000000000e+00)
"vout" (-3.654213402109288e+00 4.566851454610035e-04)
"voutp" (0.000000000000000e+00 0.000000000000000e+00)
"VDD:p" (-3.654213402109288e-04 4.566851454610035e-08)
"VIN:p" (-3.159620455154241e-14 -6.503356796610653e-10)
"VINP:p" (0.000000000000000e+00 0.000000000000000e+00)
"freq" 2.511886431509575e+04
"vdd" (0.000000000000000e+00 0.000000000000000e+00)
"vin" (1.000000000000000e+00 0.000000000000000e+00)
"vinp" (0.000000000000000e+00 0.000000000000000e+00)
"vmid" (0.000000000000000e+00 0.000000000000000e+00)
"vout" (-3.654213387373502e+00 5.124091589524056e-04)
"voutp" (0.000000000000000e+00 0.000000000000000e+00)
"VDD:p" (-3.654213387373502e-04 5.124091589524056e-08)
"VIN:p" (-3.977726466623795e-14 -7.296886329268206e-10)
"VINP:p" (0.000000000000000e+00 0.000000000000000e+00)
"freq" 2.818382931264447e+04
"vdd" (0.000000000000000e+00 0.000000000000000e+00)
"vin" (1.000000000000000e+00 0.000000000000000e+00)
"vinp" (0.000000000000000e+00 0.000000000000000e+00)
"vmid" (0.000000000000000e+00 0.000000000000000e+00)
"vout" (-3.654213368822246e+00 5.749325295875308e-04)
"voutp" (0.000000000000000e+00 0.000000000000000e+00)
"VDD:p" (-3.654213368822246e-04 5.749325295875308e-08)
"VIN:p" (-5.007660904649289e-14 -8.187241104224558e-10)
"VINP:p" (0.000000000000000e+00 0.000000000000000e+00)
"freq" 3.162277660168372e+04
"vdd" (0.000000000000000e+00 0.000000000000000e+00)
"vin" (1.000000000000000e+00 0.000000000000000e+00)
"vinp" (0.000000000000000e+00 0.000000000000000e+00)
"vmid" (0.000000000000000e+00 0.000000000000000e+00)
"vout" (-3.654213345467598e+00 6.450849040646472e-04)
"voutp" (0.000000000000000e+00 0.000000000000000e+00)
"VDD:p" (-3.654213345467598e-04 6.450849040646472e-08)
"VIN:p" (-6.304271526334710e-14 -9.186235585935642e-10)
"VINP:p" (0.000000000000000e+00 0.000000000000000e+00)
"freq" 3.548133892335746e+04
"vdd" (0.000000000000000e+00 0.000000000000000e+00)
"vin" (1.000000000000000e+00 0.000000000000000e+00)
"vinp" (0.000000000000000e+00 0.000000000000000e+00)
"vmid" (0.000000000000000e+00 0.000000000000000e+00)
"vout" (-3.654213316065837e+00 7.237971611451023e-04)
"voutp" (0.000000000000000e+00 0.000000000000000e+00)
"VDD:p" (-3.654213316065838e-04 7.237971611451024e-08)
"VIN:p" (-7.936607563677789e-14 -1.030712582074559e-09)
"VINP:p" (0.000000000000000e+00 0.000000000000000e+00)
"freq" 3.981071705534963e+04
"vdd" (0.000000000000000e+00 0.000000000000000e+00)
"vin" (1.000000000000000e+00 0.000000000000000e+00)
"vinp" (0.000000000000000e+00 0.000000000000000e+00)
"vmid" (0.000000000000000e+00 0.000000000000000e+00)
"vout" (-3.654213279051217e+00 8.121137637735101e-04)
"voutp" (0.000000000000000e+00 0.000000000000000e+00)
"VDD:p" (-3.654213279051217e-04 8.121137637735101e-08)
"VIN:p" (-9.991596844433090e-14 -1.156478533614917e-09)
"VINP:p" (0.000000000000000e+00 0.000000000000000e+00)
"freq" 4.466835921509621e+04
"vdd" (0.000000000000000e+00 0.000000000000000e+00)
"vin" (1.000000000000000e+00 0.000000000000000e+00)
"vinp" (0.000000000000000e+00 0.000000000000000e+00)
"vmid" (0.000000000000000e+00 0.000000000000000e+00)
"vout" (-3.654213232452570e+00 9.112066183599290e-04)
"voutp" (0.000000000000000e+00 0.000000000000000e+00)
"VDD:p" (-3.654213232452571e-04 9.112066183599291e-08)
"VIN:p" (-1.257867501191391e-13 -1.297590250287362e-09)
"VINP:p" (0.000000000000000e+00 0.000000000000000e+00)
"freq" 5.011872336272711e+04
"vdd" (0.000000000000000e+00 0.000000000000000e+00)
"vin" (1.000000000000000e+00 0.000000000000000e+00)
"vinp" (0.000000000000000e+00 0.000000000000000e+00)
"vmid" (0.000000000000000e+00 0.000000000000000e+00)
"vout" (-3.654213173788354e+00 1.022390625115456e-03)
"voutp" (0.000000000000000e+00 0.000000000000000e+00)
"VDD:p" (-3.654213173788354e-04 1.022390625115456e-07)
"VIN:p" (-1.583561336570249e-13 -1.455920197858368e-09)
"VINP:p" (0.000000000000000e+00 0.000000000000000e+00)
"freq" 5.623413251903476e+04
"vdd" (0.000000000000000e+00 0.000000000000000e+00)
"vin" (1.000000000000000e+00 0.000000000000000e+00)
