HEADER
"PSFversion" "1.00"
"simulator" "spectre"
"version" "25.1.0.235.isr5"
"date" "5:24:46 PM, Wed Jul 22, 2026"
"design" "// tb_nmc3.scs -- behavioral gm-C THREE-STAGE nested-Miller (NMC) amplifier."
"analysis type" "stb"
"analysis name" "stb"
"analysis description" "Stability Analysis `stb': freq = (1 Hz -> 10 GHz)"
"xVecSorted" "ascending"
"tolerance.relative" 1.000000000000000e-03
"operating point producer" "stb"
"probe" "IPRB0"
"marginFilename" "stb.margin.stb"
TYPE
"sweep" FLOAT DOUBLE PROP(
"key" "sweep"
)
"LOOPGAIN" COMPLEX DOUBLE PROP(
"key" "gain"
)
"IMPEDANCE" COMPLEX DOUBLE PROP(
"key" "advprobe"
)
"ADMITTANCE" COMPLEX DOUBLE PROP(
"key" "advprobe"
)
SWEEP
"freq" "sweep" PROP(
"sweep_direction" 0
"units" "Hz"
"plot" 0
"grid" 3
)
TRACE
"loopGain" "LOOPGAIN"
"ZL" "IMPEDANCE"
"ZG" "IMPEDANCE"
"YL" "ADMITTANCE"
"YG" "ADMITTANCE"
VALUE
"freq" 1.000000000000000e+00
"loopGain" (-3.599328479665619e+04 4.916330309547901e+02)
"ZL" (1.340780792994260e+154 0.000000000000000e+00)
"ZG" (1.340780792994260e+154 0.000000000000000e+00)
"YL" (0.000000000000000e+00 0.000000000000000e+00)
"YG" (0.000000000000000e+00 0.000000000000000e+00)
"freq" 1.059253725177289e+00
"loopGain" (-3.599246558956896e+04 5.207522669108382e+02)
"ZL" (1.340780792994260e+154 0.000000000000000e+00)
"ZG" (1.340780792994260e+154 0.000000000000000e+00)
"YL" (0.000000000000000e+00 0.000000000000000e+00)
"YG" (0.000000000000000e+00 0.000000000000000e+00)
"freq" 1.122018454301963e+00
"loopGain" (-3.599154646846774e+04 5.515946925194685e+02)
"ZL" (1.340780792994260e+154 0.000000000000000e+00)
"ZG" (1.340780792994260e+154 0.000000000000000e+00)
"YL" (0.000000000000000e+00 0.000000000000000e+00)
"YG" (0.000000000000000e+00 0.000000000000000e+00)
"freq" 1.188502227437018e+00
"loopGain" (-3.599051525335576e+04 5.842619923797182e+02)
"ZL" (1.340780792994260e+154 0.000000000000000e+00)
"ZG" (1.340780792994260e+154 0.000000000000000e+00)
"YL" (0.000000000000000e+00 0.000000000000000e+00)
"YG" (0.000000000000000e+00 0.000000000000000e+00)
"freq" 1.258925411794167e+00
"loopGain" (-3.598935828165284e+04 6.188617970555113e+02)
"ZL" (1.340780792994260e+154 0.000000000000000e+00)
"ZG" (1.340780792994260e+154 0.000000000000000e+00)
"YL" (0.000000000000000e+00 0.000000000000000e+00)
"YG" (0.000000000000000e+00 0.000000000000000e+00)
"freq" 1.333521432163324e+00
"loopGain" (-3.598806022583525e+04 6.555080204098024e+02)
"ZL" (1.340780792994260e+154 0.000000000000000e+00)
"ZG" (1.340780792994260e+154 0.000000000000000e+00)
"YL" (0.000000000000000e+00 0.000000000000000e+00)
"YG" (0.000000000000000e+00 0.000000000000000e+00)
"freq" 1.412537544622754e+00
"loopGain" (-3.598660389561192e+04 6.943212143458070e+02)
"ZL" (1.340780792994260e+154 0.000000000000000e+00)
"ZG" (1.340780792994260e+154 0.000000000000000e+00)
"YL" (0.000000000000000e+00 0.000000000000000e+00)
"YG" (0.000000000000000e+00 0.000000000000000e+00)
"freq" 1.496235656094433e+00
"loopGain" (-3.598497000564096e+04 7.354289408743416e+02)
"ZL" (1.340780792994260e+154 0.000000000000000e+00)
"ZG" (1.340780792994260e+154 0.000000000000000e+00)
"YL" (0.000000000000000e+00 0.000000000000000e+00)
"YG" (0.000000000000000e+00 0.000000000000000e+00)
"freq" 1.584893192461113e+00
"loopGain" (-3.598313692786852e+04 7.789661627242608e+02)
"ZL" (1.340780792994260e+154 0.000000000000000e+00)
"ZG" (1.340780792994260e+154 0.000000000000000e+00)
"YL" (0.000000000000000e+00 0.000000000000000e+00)
"YG" (0.000000000000000e+00 0.000000000000000e+00)
"freq" 1.678804018122560e+00
"loopGain" (-3.598108040353301e+04 8.250756520310375e+02)
"ZL" (1.340780792994260e+154 0.000000000000000e+00)
"ZG" (1.340780792994260e+154 0.000000000000000e+00)
"YL" (0.000000000000000e+00 0.000000000000000e+00)
"YG" (0.000000000000000e+00 0.000000000000000e+00)
"freq" 1.778279410038923e+00
"loopGain" (-3.597877322472110e+04 8.739084178068010e+02)
"ZL" (1.340780792994260e+154 0.000000000000000e+00)
"ZG" (1.340780792994260e+154 0.000000000000000e+00)
"YL" (0.000000000000000e+00 0.000000000000000e+00)
"YG" (0.000000000000000e+00 0.000000000000000e+00)
"freq" 1.883649089489801e+00
"loopGain" (-3.597618487970501e+04 9.256241522311943e+02)
"ZL" (1.340780792994260e+154 0.000000000000000e+00)
"ZG" (1.340780792994260e+154 0.000000000000000e+00)
"YL" (0.000000000000000e+00 0.000000000000000e+00)
"YG" (0.000000000000000e+00 0.000000000000000e+00)
"freq" 1.995262314968880e+00
"loopGain" (-3.597328115252996e+04 9.803916954061810e+02)
"ZL" (1.340780792994260e+154 0.000000000000000e+00)
"ZG" (1.340780792994260e+154 0.000000000000000e+00)
"YL" (0.000000000000000e+00 0.000000000000000e+00)
"YG" (0.000000000000000e+00 0.000000000000000e+00)
"freq" 2.113489039836647e+00
"loopGain" (-3.597002367428513e+04 1.038389518293720e+03)
"ZL" (1.340780792994260e+154 0.000000000000000e+00)
"ZG" (1.340780792994260e+154 0.000000000000000e+00)
"YL" (0.000000000000000e+00 0.000000000000000e+00)
"YG" (0.000000000000000e+00 0.000000000000000e+00)
"freq" 2.238721138568339e+00
"loopGain" (-3.596636942651646e+04 1.099806223534298e+03)
"ZL" (1.340780792994260e+154 0.000000000000000e+00)
"ZG" (1.340780792994260e+154 0.000000000000000e+00)
"YL" (0.000000000000000e+00 0.000000000000000e+00)
"YG" (0.000000000000000e+00 0.000000000000000e+00)
"freq" 2.371373705661655e+00
"loopGain" (-3.596227017624097e+04 1.164841062335980e+03)
"ZL" (1.340780792994260e+154 0.000000000000000e+00)
"ZG" (1.340780792994260e+154 0.000000000000000e+00)
"YL" (0.000000000000000e+00 0.000000000000000e+00)
"YG" (0.000000000000000e+00 0.000000000000000e+00)
"freq" 2.511886431509580e+00
"loopGain" (-3.595767185494033e+04 1.233704467081759e+03)
"ZL" (1.340780792994260e+154 0.000000000000000e+00)
"ZG" (1.340780792994260e+154 0.000000000000000e+00)
"YL" (0.000000000000000e+00 0.000000000000000e+00)
"YG" (0.000000000000000e+00 0.000000000000000e+00)
"freq" 2.660725059798810e+00
"loopGain" (-3.595251385299172e+04 1.306618596421423e+03)
"ZL" (1.340780792994260e+154 0.000000000000000e+00)
"ZG" (1.340780792994260e+154 0.000000000000000e+00)
"YL" (0.000000000000000e+00 0.000000000000000e+00)
"YG" (0.000000000000000e+00 0.000000000000000e+00)
"freq" 2.818382931264454e+00
"loopGain" (-3.594672824051917e+04 1.383817891419746e+03)
"ZL" (1.340780792994260e+154 0.000000000000000e+00)
"ZG" (1.340780792994260e+154 0.000000000000000e+00)
"YL" (0.000000000000000e+00 0.000000000000000e+00)
"YG" (0.000000000000000e+00 0.000000000000000e+00)
"freq" 2.985382618917960e+00
"loopGain" (-3.594023889293434e+04 1.465549638594127e+03)
"ZL" (1.340780792994260e+154 0.000000000000000e+00)
"ZG" (1.340780792994260e+154 0.000000000000000e+00)
"YL" (0.000000000000000e+00 0.000000000000000e+00)
"YG" (0.000000000000000e+00 0.000000000000000e+00)
"freq" 3.162277660168379e+00
"loopGain" (-3.593296051429694e+04 1.552074535686835e+03)
"ZL" (1.340780792994260e+154 0.000000000000000e+00)
"ZG" (1.340780792994260e+154 0.000000000000000e+00)
"YL" (0.000000000000000e+00 0.000000000000000e+00)
"YG" (0.000000000000000e+00 0.000000000000000e+00)
"freq" 3.349654391578276e+00
"loopGain" (-3.592479754805341e+04 1.643667254774366e+03)
"ZL" (1.340780792994260e+154 0.000000000000000e+00)
"ZG" (1.340780792994260e+154 0.000000000000000e+00)
"YL" (0.000000000000000e+00 0.000000000000000e+00)
"YG" (0.000000000000000e+00 0.000000000000000e+00)
"freq" 3.548133892335754e+00
"loopGain" (-3.591564296252355e+04 1.740616995903141e+03)
"ZL" (1.340780792994260e+154 0.000000000000000e+00)
"ZG" (1.340780792994260e+154 0.000000000000000e+00)
"YL" (0.000000000000000e+00 0.000000000000000e+00)
"YG" (0.000000000000000e+00 0.000000000000000e+00)
"freq" 3.758374042884441e+00
"loopGain" (-3.590537690184345e+04 1.843228023296923e+03)
"ZL" (1.340780792994260e+154 0.000000000000000e+00)
"ZG" (1.340780792994260e+154 0.000000000000000e+00)
"YL" (0.000000000000000e+00 0.000000000000000e+00)
"YG" (0.000000000000000e+00 0.000000000000000e+00)
"freq" 3.981071705534972e+00
"loopGain" (-3.589386517608877e+04 1.951820172770691e+03)
"ZL" (1.340780792994260e+154 0.000000000000000e+00)
"ZG" (1.340780792994260e+154 0.000000000000000e+00)
"YL" (0.000000000000000e+00 0.000000000000000e+00)
"YG" (0.000000000000000e+00 0.000000000000000e+00)
"freq" 4.216965034285822e+00
"loopGain" (-3.588095759274826e+04 2.066729319609022e+03)
"ZL" (1.340780792994260e+154 0.000000000000000e+00)
"ZG" (1.340780792994260e+154 0.000000000000000e+00)
"YL" (0.000000000000000e+00 0.000000000000000e+00)
"YG" (0.000000000000000e+00 0.000000000000000e+00)
"freq" 4.466835921509631e+00
"loopGain" (-3.586648609274373e+04 2.188307789811397e+03)
"ZL" (1.340780792994260e+154 0.000000000000000e+00)
"ZG" (1.340780792994260e+154 0.000000000000000e+00)
"YL" (0.000000000000000e+00 0.000000000000000e+00)
"YG" (0.000000000000000e+00 0.000000000000000e+00)
"freq" 4.731512589614804e+00
"loopGain" (-3.585026269253057e+04 2.316924698578413e+03)
"ZL" (1.340780792994260e+154 0.000000000000000e+00)
"ZG" (1.340780792994260e+154 0.000000000000000e+00)
"YL" (0.000000000000000e+00 0.000000000000000e+00)
"YG" (0.000000000000000e+00 0.000000000000000e+00)
"freq" 5.011872336272723e+00
"loopGain" (-3.583207720187261e+04 2.452966193130088e+03)
"ZL" (1.340780792994260e+154 0.000000000000000e+00)
"ZG" (1.340780792994260e+154 0.000000000000000e+00)
"YL" (0.000000000000000e+00 0.000000000000000e+00)
"YG" (0.000000000000000e+00 0.000000000000000e+00)
"freq" 5.308844442309884e+00
"loopGain" (-3.581169469656194e+04 2.596835573614293e+03)
"ZL" (1.340780792994260e+154 0.000000000000000e+00)
"ZG" (1.340780792994260e+154 0.000000000000000e+00)
"YL" (0.000000000000000e+00 0.000000000000000e+00)
"YG" (0.000000000000000e+00 0.000000000000000e+00)
"freq" 5.623413251903491e+00
"loopGain" (-3.578885273744835e+04 2.748953262815041e+03)
"ZL" (1.340780792994260e+154 0.000000000000000e+00)
"ZG" (1.340780792994260e+154 0.000000000000000e+00)
"YL" (0.000000000000000e+00 0.000000000000000e+00)
"YG" (0.000000000000000e+00 0.000000000000000e+00)
"freq" 5.956621435290105e+00
"loopGain" (-3.576325830144202e+04 2.909756586328467e+03)
"ZL" (1.340780792994260e+154 0.000000000000000e+00)
"ZG" (1.340780792994260e+154 0.000000000000000e+00)
"YL" (0.000000000000000e+00 0.000000000000000e+00)
"YG" (0.000000000000000e+00 0.000000000000000e+00)
"freq" 6.309573444801933e+00
"loopGain" (-3.573458441764102e+04 3.079699322082105e+03)
"ZL" (1.340780792994260e+154 0.000000000000000e+00)
"ZG" (1.340780792994260e+154 0.000000000000000e+00)
"YL" (0.000000000000000e+00 0.000000000000000e+00)
"YG" (0.000000000000000e+00 0.000000000000000e+00)
"freq" 6.683439175686147e+00
"loopGain" (-3.570246647888126e+04 3.259250967208057e+03)
"ZL" (1.340780792994260e+154 0.000000000000000e+00)
"ZG" (1.340780792994260e+154 0.000000000000000e+00)
"YL" (0.000000000000000e+00 0.000000000000000e+00)
"YG" (0.000000000000000e+00 0.000000000000000e+00)
"freq" 7.079457843841380e+00
"loopGain" (-3.566649822041989e+04 3.448895664748102e+03)
"ZL" (1.340780792994260e+154 0.000000000000000e+00)
"ZG" (1.340780792994260e+154 0.000000000000000e+00)
"YL" (0.000000000000000e+00 0.000000000000000e+00)
"YG" (0.000000000000000e+00 0.000000000000000e+00)
"freq" 7.498942093324560e+00
"loopGain" (-3.562622734909230e+04 3.649130721442943e+03)
"ZL" (1.340780792994260e+154 0.000000000000000e+00)
"ZG" (1.340780792994260e+154 0.000000000000000e+00)
"YL" (0.000000000000000e+00 0.000000000000000e+00)
"YG" (0.000000000000000e+00 0.000000000000000e+00)
"freq" 7.943282347242817e+00
"loopGain" (-3.558115081170694e+04 3.860464637098737e+03)
"ZL" (1.340780792994260e+154 0.000000000000000e+00)
"ZG" (1.340780792994260e+154 0.000000000000000e+00)
"YL" (0.000000000000000e+00 0.000000000000000e+00)
"YG" (0.000000000000000e+00 0.000000000000000e+00)
"freq" 8.413951416451953e+00
"loopGain" (-3.553070970605066e+04 4.083414555822532e+03)
"ZL" (1.340780792994260e+154 0.000000000000000e+00)
"ZG" (1.340780792994260e+154 0.000000000000000e+00)
"YL" (0.000000000000000e+00 0.000000000000000e+00)
"YG" (0.000000000000000e+00 0.000000000000000e+00)
"freq" 8.912509381337458e+00
"loopGain" (-3.547428383800791e+04 4.318503034904793e+03)
"ZL" (1.340780792994260e+154 0.000000000000000e+00)
"ZG" (1.340780792994260e+154 0.000000000000000e+00)
"YL" (0.000000000000000e+00 0.000000000000000e+00)
"YG" (0.000000000000000e+00 0.000000000000000e+00)
"freq" 9.440608762859236e+00
"loopGain" (-3.541118594728874e+04 4.566254014769771e+03)
"ZL" (1.340780792994260e+154 0.000000000000000e+00)
"ZG" (1.340780792994260e+154 0.000000000000000e+00)
"YL" (0.000000000000000e+00 0.000000000000000e+00)
"YG" (0.000000000000000e+00 0.000000000000000e+00)
"freq" 1.000000000000000e+01
"loopGain" (-3.534065563334948e+04 4.827187857484396e+03)
"ZL" (1.340780792994260e+154 0.000000000000000e+00)
"ZG" (1.340780792994260e+154 0.000000000000000e+00)
"YL" (0.000000000000000e+00 0.000000000000000e+00)
"YG" (0.000000000000000e+00 0.000000000000000e+00)
"freq" 1.059253725177289e+01
"loopGain" (-3.526185304620550e+04 5.101815309973766e+03)
"ZL" (1.340780792994260e+154 0.000000000000000e+00)
"ZG" (1.340780792994260e+154 0.000000000000000e+00)
"YL" (0.000000000000000e+00 0.000000000000000e+00)
"YG" (0.000000000000000e+00 0.000000000000000e+00)
"freq" 1.122018454301964e+01
"loopGain" (-3.517385240750090e+04 5.390630227256349e+03)
"ZL" (1.340780792994260e+154 0.000000000000000e+00)
"ZG" (1.340780792994260e+154 0.000000000000000e+00)
"YL" (0.000000000000000e+00 0.000000000000000e+00)
"YG" (0.000000000000000e+00 0.000000000000000e+00)
"freq" 1.188502227437019e+01
"loopGain" (-3.507563550156917e+04 5.694100889934312e+03)
"ZL" (1.340780792994260e+154 0.000000000000000e+00)
"ZG" (1.340780792994260e+154 0.000000000000000e+00)
"YL" (0.000000000000000e+00 0.000000000000000e+00)
"YG" (0.000000000000000e+00 0.000000000000000e+00)
"freq" 1.258925411794168e+01
"loopGain" (-3.496608526234328e+04 6.012659725117919e+03)
"ZL" (1.340780792994260e+154 0.000000000000000e+00)
"ZG" (1.340780792994260e+154 0.000000000000000e+00)
"YL" (0.000000000000000e+00 0.000000000000000e+00)
"YG" (0.000000000000000e+00 0.000000000000000e+00)
"freq" 1.333521432163325e+01
"loopGain" (-3.484397967283319e+04 6.346691246169285e+03)
"ZL" (1.340780792994260e+154 0.000000000000000e+00)
"ZG" (1.340780792994260e+154 0.000000000000000e+00)
"YL" (0.000000000000000e+00 0.000000000000000e+00)
"YG" (0.000000000000000e+00 0.000000000000000e+00)
"freq" 1.412537544622755e+01
"loopGain" (-3.470798623303592e+04 6.696518023099909e+03)
"ZL" (1.340780792994260e+154 0.000000000000000e+00)
"ZG" (1.340780792994260e+154 0.000000000000000e+00)
"YL" (0.000000000000000e+00 0.000000000000000e+00)
"YG" (0.000000000000000e+00 0.000000000000000e+00)
"freq" 1.496235656094434e+01
"loopGain" (-3.455665730742191e+04 7.062384501090762e+03)
"ZL" (1.340780792994260e+154 0.000000000000000e+00)
"ZG" (1.340780792994260e+154 0.000000000000000e+00)
"YL" (0.000000000000000e+00 0.000000000000000e+00)
"YG" (0.000000000000000e+00 0.000000000000000e+00)
"freq" 1.584893192461114e+01
"loopGain" (-3.438842676221332e+04 7.444438516182550e+03)
"ZL" (1.340780792994260e+154 0.000000000000000e+00)
"ZG" (1.340780792994260e+154 0.000000000000000e+00)
"YL" (0.000000000000000e+00 0.000000000000000e+00)
"YG" (0.000000000000000e+00 0.000000000000000e+00)
"freq" 1.678804018122561e+01
"loopGain" (-3.420160835157515e+04 7.842710383116012e+03)
"ZL" (1.340780792994260e+154 0.000000000000000e+00)
"ZG" (1.340780792994260e+154 0.000000000000000e+00)
"YL" (0.000000000000000e+00 0.000000000000000e+00)
"YG" (0.000000000000000e+00 0.000000000000000e+00)
"freq" 1.778279410038923e+01
"loopGain" (-3.399439644024111e+04 8.257089506751543e+03)
"ZL" (1.340780792994260e+154 0.000000000000000e+00)
"ZG" (1.340780792994260e+154 0.000000000000000e+00)
"YL" (0.000000000000000e+00 0.000000000000000e+00)
"YG" (0.000000000000000e+00 0.000000000000000e+00)
"freq" 1.883649089489801e+01
"loopGain" (-3.376486970193079e+04 8.687298538450772e+03)
"ZL" (1.340780792994260e+154 0.000000000000000e+00)
"ZG" (1.340780792994260e+154 0.000000000000000e+00)
"YL" (0.000000000000000e+00 0.000000000000000e+00)
"YG" (0.000000000000000e+00 0.000000000000000e+00)
"freq" 1.995262314968880e+01
"loopGain" (-3.351099855642653e+04 9.132865232559157e+03)
"ZL" (1.340780792994260e+154 0.000000000000000e+00)
"ZG" (1.340780792994260e+154 0.000000000000000e+00)
"YL" (0.000000000000000e+00 0.000000000000000e+00)
"YG" (0.000000000000000e+00 0.000000000000000e+00)
"freq" 2.113489039836647e+01
"loopGain" (-3.323065716837309e+04 9.593092305857486e+03)
"ZL" (1.340780792994260e+154 0.000000000000000e+00)
"ZG" (1.340780792994260e+154 0.000000000000000e+00)
"YL" (0.000000000000000e+00 0.000000000000000e+00)
"YG" (0.000000000000000e+00 0.000000000000000e+00)
"freq" 2.238721138568340e+01
"loopGain" (-3.292164089370216e+04 1.006702580113283e+04)
"ZL" (1.340780792994260e+154 0.000000000000000e+00)
"ZG" (1.340780792994260e+154 0.000000000000000e+00)
"YL" (0.000000000000000e+00 0.000000000000000e+00)
"YG" (0.000000000000000e+00 0.000000000000000e+00)
"freq" 2.371373705661656e+01
"loopGain" (-3.258169009797200e+04 1.055342270550714e+04)
"ZL" (1.340780792994260e+154 0.000000000000000e+00)
"ZG" (1.340780792994260e+154 0.000000000000000e+00)
"YL" (0.000000000000000e+00 0.000000000000000e+00)
"YG" (0.000000000000000e+00 0.000000000000000e+00)
"freq" 2.511886431509581e+01
"loopGain" (-3.220852122576194e+04 1.105071884626311e+04)
"ZL" (1.340780792994260e+154 0.000000000000000e+00)
"ZG" (1.340780792994260e+154 0.000000000000000e+00)
"YL" (0.000000000000000e+00 0.000000000000000e+00)
"YG" (0.000000000000000e+00 0.000000000000000e+00)
"freq" 2.660725059798811e+01
"loopGain" (-3.179986593032443e+04 1.155699842436434e+04)
"ZL" (1.340780792994260e+154 0.000000000000000e+00)
"ZG" (1.340780792994260e+154 0.000000000000000e+00)
"YL" (0.000000000000000e+00 0.000000000000000e+00)
"YG" (0.000000000000000e+00 0.000000000000000e+00)
"freq" 2.818382931264455e+01
"loopGain" (-3.135351886928877e+04 1.206996688165050e+04)
"ZL" (1.340780792994260e+154 0.000000000000000e+00)
"ZG" (1.340780792994260e+154 0.000000000000000e+00)
"YL" (0.000000000000000e+00 0.000000000000000e+00)
"YG" (0.000000000000000e+00 0.000000000000000e+00)
"freq" 2.985382618917961e+01
"loopGain" (-3.086739447709386e+04 1.258692914778368e+04)
"ZL" (1.340780792994260e+154 0.000000000000000e+00)
"ZG" (1.340780792994260e+154 0.000000000000000e+00)
"YL" (0.000000000000000e+00 0.000000000000000e+00)
"YG" (0.000000000000000e+00 0.000000000000000e+00)
"freq" 3.162277660168380e+01
"loopGain" (-3.033959260699889e+04 1.310477564366360e+04)
"ZL" (1.340780792994260e+154 0.000000000000000e+00)
"ZG" (1.340780792994260e+154 0.000000000000000e+00)
"YL" (0.000000000000000e+00 0.000000000000000e+00)
"YG" (0.000000000000000e+00 0.000000000000000e+00)
"freq" 3.349654391578277e+01
"loopGain" (-2.976847235075131e+04 1.361997865595242e+04)
"ZL" (1.340780792994260e+154 0.000000000000000e+00)
"ZG" (1.340780792994260e+154 0.000000000000000e+00)
"YL" (0.000000000000000e+00 0.000000000000000e+00)
"YG" (0.000000000000000e+00 0.000000000000000e+00)
"freq" 3.548133892335755e+01
"loopGain" (-2.915273264416260e+04 1.412860183117971e+04)
"ZL" (1.340780792994260e+154 0.000000000000000e+00)
"ZG" (1.340780792994260e+154 0.000000000000000e+00)
"YL" (0.000000000000000e+00 0.000000000000000e+00)
"YG" (0.000000000000000e+00 0.000000000000000e+00)
"freq" 3.758374042884443e+01
"loopGain" (-2.849149744082461e+04 1.462632548667899e+04)
"ZL" (1.340780792994260e+154 0.000000000000000e+00)
"ZG" (1.340780792994260e+154 0.000000000000000e+00)
"YL" (0.000000000000000e+00 0.000000000000000e+00)
"YG" (0.000000000000000e+00 0.000000000000000e+00)
"freq" 3.981071705534974e+01
"loopGain" (-2.778440231186869e+04 1.510849011084304e+04)
"ZL" (1.340780792994260e+154 0.000000000000000e+00)
"ZG" (1.340780792994260e+154 0.000000000000000e+00)
"YL" (0.000000000000000e+00 0.000000000000000e+00)
"YG" (0.000000000000000e+00 0.000000000000000e+00)
"freq" 4.216965034285824e+01
"loopGain" (-2.703167845075138e+04 1.557015986454279e+04)
