HEADER
"PSFversion" "1.00"
"simulator" "spectre"
"version" "25.1.0.235.isr5"
"date" "6:41:55 PM, Sat Jul 18, 2026"
"design" "// tb_ota2s (SKY130) -- closed-form-Cc phase-margin check, Cc=7.32p"
"analysis type" "ac"
"analysis name" "ac"
"analysis description" "AC Analysis `ac': freq = (1 mHz -> 10 GHz)"
"xVecSorted" "ascending"
"tolerance.relative" 1.000000000000000e-03
"start" 1.000000000000000e-03
"stop" 1.000000000000000e+10
"operating point producer" "ac"
TYPE
"sweep" FLOAT DOUBLE PROP(
"key" "sweep"
)
"V" COMPLEX DOUBLE PROP(
"units" "V"
"key" "node"
"tolerance" 1.000000000000000e-06
)
"I" COMPLEX DOUBLE PROP(
"units" "A"
"key" "branch"
"tolerance" 1.000000000000000e-12
)
"MMF" COMPLEX DOUBLE PROP(
"units" "A*turn"
"key" "node"
"tolerance" 1.000000000000000e-12
)
"Wb" COMPLEX DOUBLE PROP(
"units" "Wb"
"key" "node"
"tolerance" 1.000000000000000e-09
)
"Temp" COMPLEX DOUBLE PROP(
"units" "C"
"key" "node"
"tolerance" 1.000000000000000e-04
)
"Pwr" COMPLEX DOUBLE PROP(
"units" "W"
"key" "node"
"tolerance" 1.000000000000000e-09
)
"U" COMPLEX DOUBLE PROP(
"units" ""
"key" "node"
"tolerance" 1.000000000000000e-06
)
"V/Sec" COMPLEX DOUBLE PROP(
"units" "V/s"
"key" "node"
"tolerance" 9.999999999999999e-05
)
"I/Sec" COMPLEX DOUBLE PROP(
"units" "A/s"
"key" "node"
"tolerance" 1.000000000000000e-06
)
"1/Sec" COMPLEX DOUBLE PROP(
"units" "1/s"
"key" "node"
"tolerance" 9.999999999999999e-05
)
"HOD" COMPLEX DOUBLE PROP(
"units" ""
"key" "node"
"tolerance" 1.000000000000000e-02
)
"Q" COMPLEX DOUBLE PROP(
"units" "Coul"
"key" "node"
"tolerance" 1.000000000000000e-15
)
"Efield" COMPLEX DOUBLE PROP(
"units" "V/m"
"key" "node"
"tolerance" 1.000000000000000e-06
"sigtype" "optical"
)
SWEEP
"freq" "sweep" PROP(
"sweep_direction" 0
"units" "Hz"
"plot" 0
"grid" 3
)
TRACE
"vdd!" "V"
"vout" "V"
"vin_dm" "V"
"vin_cm" "V"
"vin_p" "V"
"net1" "V"
"vbn" "V"
"vin_n" "V"
"I0.tail" "V"
"I0.outd" "V"
"I0.mirr" "V"
"I0.net1" "V"
"VINC:p" "I"
"VIND:p" "I"
"VSUP:p" "I"
VALUE
"freq" 1.000000000000000e-03
"vdd!" (0.000000000000000e+00 0.000000000000000e+00)
"vout" (1.878492409253216e+04 -4.816874924860248e-02)
"vin_dm" (1.000000000000000e+00 0.000000000000000e+00)
"vin_cm" (0.000000000000000e+00 0.000000000000000e+00)
"vin_p" (5.000000000000000e-01 0.000000000000000e+00)
"net1" (-5.000000000000000e-01 0.000000000000000e+00)
"vbn" (1.461236276998338e-14 5.698523916185461e-09)
"vin_n" (-5.000000000000000e-01 -0.000000000000000e+00)
"I0.tail" (-3.559456012010336e-01 9.081294017130891e-07)
"I0.outd" (-1.765626468547164e+02 4.513580840366890e-04)
"I0.mirr" (8.847006759158267e-02 1.488436656717753e-06)
"I0.net1" (-1.765626468547164e+02 4.513580840366890e-04)
"VINC:p" (-3.529419569078800e-20 -1.376241453721229e-14)
"VIND:p" (-2.500000015475312e-12 -7.402341747054344e-15)
"VSUP:p" (-1.395846241929130e-01 3.573094805210954e-07)
"freq" 1.122018454301963e-03
"vdd!" (0.000000000000000e+00 0.000000000000000e+00)
"vout" (1.878492409250017e+04 -5.404622557748379e-02)
"vin_dm" (1.000000000000000e+00 0.000000000000000e+00)
"vin_cm" (0.000000000000000e+00 0.000000000000000e+00)
"vin_p" (5.000000000000000e-01 0.000000000000000e+00)
"net1" (-5.000000000000000e-01 0.000000000000000e+00)
"vbn" (1.839587481745577e-14 6.393848996230296e-09)
"vin_n" (-5.000000000000000e-01 -0.000000000000000e+00)
"I0.tail" (-3.559456012004308e-01 1.018937947614552e-06)
"I0.outd" (-1.765626468544167e+02 5.064320997866792e-04)
"I0.mirr" (8.847006759257088e-02 1.670053396893992e-06)
"I0.net1" (-1.765626468544167e+02 5.064320997866792e-04)
"VINC:p" (-4.443275987078706e-20 -1.544168308647952e-14)
"VIND:p" (-2.500000019482264e-12 -8.305564045233284e-15)
"VSUP:p" (-1.395846241926758e-01 4.009078310410344e-07)
"freq" 1.258925411794167e-03
"vdd!" (0.000000000000000e+00 0.000000000000000e+00)
"vout" (1.878492409245991e+04 -6.064086248317362e-02)
"vin_dm" (1.000000000000000e+00 0.000000000000000e+00)
"vin_cm" (0.000000000000000e+00 0.000000000000000e+00)
"vin_p" (5.000000000000000e-01 0.000000000000000e+00)
"net1" (-5.000000000000000e-01 0.000000000000000e+00)
"vbn" (2.315903427982980e-14 7.174016567775099e-09)
"vin_n" (-5.000000000000000e-01 -0.000000000000000e+00)
"I0.tail" (-3.559456011996718e-01 1.143267181009644e-06)
"I0.outd" (-1.765626468540395e+02 5.682261618103295e-04)
"I0.mirr" (8.847006759381489e-02 1.873830730980723e-06)
"I0.net1" (-1.765626468540395e+02 5.682261618103295e-04)
"VINC:p" (-5.593753053659534e-20 -1.732585338847538e-14)
"VIND:p" (-2.500000024526716e-12 -9.318996132122327e-15)
"VSUP:p" (-1.395846241923772e-01 4.498259849012501e-07)
"freq" 1.412537544622754e-03
"vdd!" (0.000000000000000e+00 0.000000000000000e+00)
"vout" (1.878492409240923e+04 -6.804016679072479e-02)
"vin_dm" (1.000000000000000e+00 0.000000000000000e+00)
"vin_cm" (0.000000000000000e+00 0.000000000000000e+00)
"vin_p" (5.000000000000000e-01 0.000000000000000e+00)
"net1" (-5.000000000000000e-01 0.000000000000000e+00)
"vbn" (2.915549676741130e-14 8.049378980489976e-09)
"vin_n" (-5.000000000000000e-01 -0.000000000000000e+00)
"I0.tail" (-3.559456011987161e-01 1.282766875287143e-06)
"I0.outd" (-1.765626468535645e+02 6.375602397666432e-04)
"I0.mirr" (8.847006759538129e-02 2.102472660392838e-06)
"I0.net1" (-1.765626468535645e+02 6.375602397666432e-04)
"VINC:p" (-7.042117871906329e-20 -1.943992723834712e-14)
"VIND:p" (-2.500000030877307e-12 -1.045608563578687e-14)
"VSUP:p" (-1.395846241920012e-01 5.047130562823973e-07)
"freq" 1.584893192461113e-03
"vdd!" (0.000000000000000e+00 0.000000000000000e+00)
"vout" (1.878492409234542e+04 -7.634232277271749e-02)
"vin_dm" (1.000000000000000e+00 0.000000000000000e+00)
"vin_cm" (0.000000000000000e+00 0.000000000000000e+00)
"vin_p" (5.000000000000000e-01 0.000000000000000e+00)
"net1" (-5.000000000000000e-01 0.000000000000000e+00)
"vbn" (3.670459577385209e-14 9.031551761749397e-09)
"vin_n" (-5.000000000000000e-01 -0.000000000000000e+00)
"I0.tail" (-3.559456011975131e-01 1.439288106634551e-06)
"I0.outd" (-1.765626468529667e+02 7.153543547449282e-04)
"I0.mirr" (8.847006759735304e-02 2.359013124618096e-06)
"I0.net1" (-1.765626468529667e+02 7.153543547449282e-04)
"VINC:p" (-8.865501136335700e-20 -2.181195711163877e-14)
"VIND:p" (-2.500000038872226e-12 -1.173192104308205e-14)
"VSUP:p" (-1.395846241915279e-01 5.662973632740715e-07)
"freq" 1.778279410038922e-03
"vdd!" (0.000000000000000e+00 0.000000000000000e+00)
"vout" (1.878492409226509e+04 -8.565749499489977e-02)
"vin_dm" (1.000000000000000e+00 0.000000000000000e+00)
"vin_cm" (0.000000000000000e+00 0.000000000000000e+00)
"vin_p" (5.000000000000000e-01 0.000000000000000e+00)
"net1" (-5.000000000000000e-01 0.000000000000000e+00)
"vbn" (4.620834834913760e-14 1.013356774762290e-08)
"vin_n" (-5.000000000000000e-01 -0.000000000000000e+00)
"I0.tail" (-3.559456011959986e-01 1.614907816694392e-06)
"I0.outd" (-1.765626468522139e+02 8.026407873856503e-04)
"I0.mirr" (8.847006759983539e-02 2.646856259750721e-06)
"I0.net1" (-1.765626468522139e+02 8.026407873856503e-04)
"VINC:p" (-1.116100467230697e-19 -2.447341840359697e-14)
"VIND:p" (-2.500000048937233e-12 -1.316343191470571e-14)
"VSUP:p" (-1.395846241909320e-01 6.353960922133338e-07)
"freq" 1.995262314968878e-03
"vdd!" (0.000000000000000e+00 0.000000000000000e+00)
"vout" (1.878492409216395e+04 -9.610929013303821e-02)
"vin_dm" (1.000000000000000e+00 0.000000000000000e+00)
"vin_cm" (0.000000000000000e+00 0.000000000000000e+00)
"vin_p" (5.000000000000000e-01 0.000000000000000e+00)
"net1" (-5.000000000000000e-01 0.000000000000000e+00)
"vbn" (5.817286397345317e-14 1.137005002069085e-08)
"vin_n" (-5.000000000000000e-01 -0.000000000000000e+00)
"I0.tail" (-3.559456011940920e-01 1.811956372317846e-06)
"I0.outd" (-1.765626468512663e+02 9.005777756173100e-04)
"I0.mirr" (8.847006760296032e-02 2.969821569308992e-06)
"I0.net1" (-1.765626468512663e+02 9.005777756173100e-04)
"VINC:p" (-1.405087241546936e-19 -2.745962708854125e-14)
"VIND:p" (-2.500000061608327e-12 -1.476961353018240e-14)
"VSUP:p" (-1.395846241901818e-01 7.129261412508748e-07)
"freq" 2.238721138568338e-03
"vdd!" (0.000000000000000e+00 0.000000000000000e+00)
"vout" (1.878492409203664e+04 -1.078363971583997e-01)
"vin_dm" (1.000000000000000e+00 0.000000000000000e+00)
"vin_cm" (0.000000000000000e+00 0.000000000000000e+00)
"vin_p" (5.000000000000000e-01 0.000000000000000e+00)
"net1" (-5.000000000000000e-01 0.000000000000000e+00)
"vbn" (7.323529673252933e-14 1.275740594946510e-08)
"vin_n" (-5.000000000000000e-01 -0.000000000000000e+00)
"I0.tail" (-3.559456011916917e-01 2.033048488116884e-06)
"I0.outd" (-1.765626468500733e+02 1.010464883769986e-03)
"I0.mirr" (8.847006760689451e-02 3.332194606726124e-06)
"I0.net1" (-1.765626468500733e+02 1.010464883769986e-03)
"VINC:p" (-1.768900031914382e-19 -3.081020834138454e-14)
"VIND:p" (-2.500000077560288e-12 -1.657177894368106e-14)
"VSUP:p" (-1.395846241892374e-01 7.999162870323487e-07)
"freq" 2.511886431509578e-03
"vdd!" (0.000000000000000e+00 0.000000000000000e+00)
"vout" (1.878492409187636e+04 -1.209944276561279e-01)
"vin_dm" (1.000000000000000e+00 0.000000000000000e+00)
"vin_cm" (0.000000000000000e+00 0.000000000000000e+00)
"vin_p" (5.000000000000000e-01 0.000000000000000e+00)
"net1" (-5.000000000000000e-01 0.000000000000000e+00)
"vbn" (9.219777609608081e-14 1.431404490419937e-08)
"vin_n" (-5.000000000000000e-01 -0.000000000000000e+00)
"I0.tail" (-3.559456011886700e-01 2.281117922138388e-06)
"I0.outd" (-1.765626468485715e+02 1.133760247004340e-03)
"I0.mirr" (8.847006761184720e-02 3.738783842040285e-06)
"I0.net1" (-1.765626468485715e+02 1.133760247004340e-03)
"VINC:p" (-2.226913202590487e-19 -3.456962233962675e-14)
"VIND:p" (-2.500000097642618e-12 -1.859384179529349e-14)
"VSUP:p" (-1.395846241880486e-01 8.975208359393439e-07)
"freq" 2.818382931264451e-03
"vdd!" (0.000000000000000e+00 0.000000000000000e+00)
"vout" (1.878492409167459e+04 -1.357579806964212e-01)
"vin_dm" (1.000000000000000e+00 0.000000000000000e+00)
"vin_cm" (0.000000000000000e+00 0.000000000000000e+00)
"vin_p" (5.000000000000000e-01 0.000000000000000e+00)
"net1" (-5.000000000000000e-01 0.000000000000000e+00)
"vbn" (1.160701232370183e-13 1.606062253804616e-08)
"vin_n" (-5.000000000000000e-01 -0.000000000000000e+00)
"I0.tail" (-3.559456011848659e-01 2.559456405050730e-06)
"I0.outd" (-1.765626468466807e+02 1.272099919879159e-03)
"I0.mirr" (8.847006761808231e-02 4.194984467370137e-06)
"I0.net1" (-1.765626468466807e+02 1.272099919879159e-03)
"VINC:p" (-2.803517618877122e-19 -3.878775422289394e-14)
"VIND:p" (-2.500000122924773e-12 -2.086263363050775e-14)
"VSUP:p" (-1.395846241865518e-01 1.007034941033652e-06)
"freq" 3.162277660168376e-03
"vdd!" (0.000000000000000e+00 0.000000000000000e+00)
"vout" (1.878492409142056e+04 -1.523229596580944e-01)
"vin_dm" (1.000000000000000e+00 0.000000000000000e+00)
"vin_cm" (0.000000000000000e+00 0.000000000000000e+00)
"vin_p" (5.000000000000000e-01 0.000000000000000e+00)
"net1" (-5.000000000000000e-01 0.000000000000000e+00)
"vbn" (1.461236276911869e-13 1.802031487502213e-08)
"vin_n" (-5.000000000000000e-01 -0.000000000000000e+00)
"I0.tail" (-3.559456011800767e-01 2.871757319409445e-06)
"I0.outd" (-1.765626468443004e+02 1.427319585801164e-03)
"I0.mirr" (8.847006762593201e-02 4.706849987835736e-06)
"I0.net1" (-1.765626468443004e+02 1.427319585801164e-03)
"VINC:p" (-3.529419573117768e-19 -4.352057603842731e-14)
"VIND:p" (-2.500000154753120e-12 -2.340825993851238e-14)
"VSUP:p" (-1.395846241846674e-01 1.129911787951368e-06)
"freq" 3.548133892335751e-03
"vdd!" (0.000000000000000e+00 0.000000000000000e+00)
"vout" (1.878492409110076e+04 -1.709091717473661e-01)
"vin_dm" (1.000000000000000e+00 0.000000000000000e+00)
"vin_cm" (0.000000000000000e+00 0.000000000000000e+00)
"vin_p" (5.000000000000000e-01 0.000000000000000e+00)
"net1" (-5.000000000000000e-01 0.000000000000000e+00)
"vbn" (1.839587481608536e-13 2.021912584176280e-08)
"vin_n" (-5.000000000000000e-01 -0.000000000000000e+00)
"I0.tail" (-3.559456011740474e-01 3.222164708599283e-06)
"I0.outd" (-1.765626468413037e+02 1.601478915428277e-03)
"I0.mirr" (8.847006763581419e-02 5.281172547892762e-06)
"I0.net1" (-1.765626468413037e+02 1.601478915428277e-03)
"VINC:p" (-4.443275989098190e-19 -4.883088945613586e-14)
"VIND:p" (-2.500000194822635e-12 -2.626449963374369e-14)
"VSUP:p" (-1.395846241822952e-01 1.267781877793179e-06)
"freq" 3.981071705534968e-03
"vdd!" (0.000000000000000e+00 0.000000000000000e+00)
"vout" (1.878492409069815e+04 -1.917632447058986e-01)
"vin_dm" (1.000000000000000e+00 0.000000000000000e+00)
"vin_cm" (0.000000000000000e+00 0.000000000000000e+00)
"vin_p" (5.000000000000000e-01 0.000000000000000e+00)
"net1" (-5.000000000000000e-01 0.000000000000000e+00)
"vbn" (2.315903427765787e-13 2.268623232382535e-08)
"vin_n" (-5.000000000000000e-01 -0.000000000000000e+00)
"I0.tail" (-3.559456011664571e-01 3.615328265771421e-06)
"I0.outd" (-1.765626468375312e+02 1.796888897247510e-03)
"I0.mirr" (8.847006764825510e-02 5.925573058961601e-06)
"I0.net1" (-1.765626468375312e+02 1.796888897247510e-03)
"VINC:p" (-5.593753056688760e-19 -5.478915910858920e-14)
"VIND:p" (-2.500000245267167e-12 -2.946925328155264e-14)
"VSUP:p" (-1.395846241793088e-01 1.422474662883057e-06)
"freq" 4.466835921509626e-03
"vdd!" (0.000000000000000e+00 0.000000000000000e+00)
"vout" (1.878492409019130e+04 -2.151618994110363e-01)
"vin_dm" (1.000000000000000e+00 0.000000000000000e+00)
"vin_cm" (0.000000000000000e+00 0.000000000000000e+00)
"vin_p" (5.000000000000000e-01 0.000000000000000e+00)
"net1" (-5.000000000000000e-01 0.000000000000000e+00)
"vbn" (2.915549676396902e-13 2.545437132522695e-08)
"vin_n" (-5.000000000000000e-01 -0.000000000000000e+00)
"I0.tail" (-3.559456011569014e-01 4.056465032445601e-06)
"I0.outd" (-1.765626468327818e+02 2.016142502987614e-03)
"I0.mirr" (8.847006766391710e-02 6.648602324290066e-06)
"I0.net1" (-1.765626468327818e+02 2.016142502987614e-03)
"VINC:p" (-7.042117868877104e-19 -6.147444761386469e-14)
"VIND:p" (-2.500000308773068e-12 -3.306504601567339e-14)
"VSUP:p" (-1.395846241755490e-01 1.596042822488692e-06)
"freq" 5.011872336272717e-03
"vdd!" (0.000000000000000e+00 0.000000000000000e+00)
"vout" (1.878492408955322e+04 -2.414156217936455e-01)
"vin_dm" (1.000000000000000e+00 0.000000000000000e+00)
"vin_cm" (0.000000000000000e+00 0.000000000000000e+00)
"vin_p" (5.000000000000000e-01 0.000000000000000e+00)
"net1" (-5.000000000000000e-01 0.000000000000000e+00)
"vbn" (3.670459576839648e-13 2.856027436858923e-08)
"vin_n" (-5.000000000000000e-01 -0.000000000000000e+00)
"I0.tail" (-3.559456011448715e-01 4.551428625479982e-06)
"I0.outd" (-1.765626468268027e+02 2.262149094777818e-03)
"I0.mirr" (8.847006768363473e-02 7.459854502914992e-06)
"I0.net1" (-1.765626468268027e+02 2.262149094777818e-03)
"VINC:p" (-8.865501137345442e-19 -6.897546468843223e-14)
"VIND:p" (-2.500000388722262e-12 -3.709959182090170e-14)
"VSUP:p" (-1.395846241708157e-01 1.790789500627679e-06)
"freq" 5.623413251903483e-03
"vdd!" (0.000000000000000e+00 0.000000000000000e+00)
"vout" (1.878492408874992e+04 -2.708727827976705e-01)
"vin_dm" (1.000000000000000e+00 0.000000000000000e+00)
"vin_cm" (0.000000000000000e+00 0.000000000000000e+00)
"vin_p" (5.000000000000000e-01 0.000000000000000e+00)
"net1" (-5.000000000000000e-01 0.000000000000000e+00)
"vbn" (4.620834834049101e-13 3.204515490011411e-08)
"vin_n" (-5.000000000000000e-01 -0.000000000000000e+00)
"I0.tail" (-3.559456011297269e-01 5.106786911008384e-06)
"I0.outd" (-1.765626468192755e+02 2.538173030614655e-03)
"I0.mirr" (8.847006770845738e-02 8.370094418320299e-06)
"I0.net1" (-1.765626468192755e+02 2.538173030614655e-03)
"VINC:p" (-1.116100466826800e-18 -7.739174427116449e-14)
"VIND:p" (-2.500000489372334e-12 -4.162642666867061e-14)
"VSUP:p" (-1.395846241648570e-01 2.009298867388533e-06)
"freq" 6.309573444801923e-03
"vdd!" (0.000000000000000e+00 0.000000000000000e+00)
"vout" (1.878492408773863e+04 -3.039242610507524e-01)
"vin_dm" (1.000000000000000e+00 0.000000000000000e+00)
"vin_cm" (0.000000000000000e+00 0.000000000000000e+00)
"vin_p" (5.000000000000000e-01 0.000000000000000e+00)
"net1" (-5.000000000000000e-01 0.000000000000000e+00)
"vbn" (5.817286395974934e-13 3.595525516695735e-08)
"vin_n" (-5.000000000000000e-01 -0.000000000000000e+00)
"I0.tail" (-3.559456011106608e-01 5.729909156030667e-06)
"I0.outd" (-1.765626468097993e+02 2.847876980407876e-03)
"I0.mirr" (8.847006773970753e-02 9.391400401099656e-06)
"I0.net1" (-1.765626468097993e+02 2.847876980407876e-03)
"VINC:p" (-1.405087239830374e-18 -8.683496527818943e-14)
"VIND:p" (-2.500000616083267e-12 -4.670561890684583e-14)
"VSUP:p" (-1.395846241573553e-01 2.254470409296602e-06)
"freq" 7.079457843841368e-03
"vdd!" (0.000000000000000e+00 0.000000000000000e+00)
"vout" (1.878492408646548e+04 -3.410086295859209e-01)
"vin_dm" (1.000000000000000e+00 0.000000000000000e+00)
"vin_cm" (0.000000000000000e+00 0.000000000000000e+00)
"vin_p" (5.000000000000000e-01 0.000000000000000e+00)
"net1" (-5.000000000000000e-01 0.000000000000000e+00)
"vbn" (7.323529671081019e-13 4.034245982372793e-08)
"vin_n" (-5.000000000000000e-01 -0.000000000000000e+00)
"I0.tail" (-3.559456010866581e-01 6.429063814104486e-06)
"I0.outd" (-1.765626467978695e+02 3.195370527382830e-03)
"I0.mirr" (8.847006777904887e-02 1.053732456105852e-05)
"I0.net1" (-1.765626467978695e+02 3.195370527382830e-03)
"VINC:p" (-1.768900031914382e-18 -9.743043351419462e-14)
"VIND:p" (-2.500000775602881e-12 -5.240456633018002e-14)
"VSUP:p" (-1.395846241479113e-01 2.529557403737055e-06)
"freq" 7.943282347242802e-03
"vdd!" (0.000000000000000e+00 0.000000000000000e+00)
"vout" (1.878492408486268e+04 -3.826179754389805e-01)
"vin_dm" (1.000000000000000e+00 0.000000000000000e+00)
"vin_cm" (0.000000000000000e+00 0.000000000000000e+00)
"vin_p" (5.000000000000000e-01 0.000000000000000e+00)
"net1" (-5.000000000000000e-01 0.000000000000000e+00)
"vbn" (9.219777606165837e-13 4.526498441029607e-08)
"vin_n" (-5.000000000000000e-01 -0.000000000000000e+00)
"I0.tail" (-3.559456010564405e-01 7.213528242694738e-06)
"I0.outd" (-1.765626467828507e+02 3.585264699750237e-03)
"I0.mirr" (8.847006782857658e-02 1.182307261546824e-05)
"I0.net1" (-1.765626467828507e+02 3.585264699750237e-03)
"VINC:p" (-2.226913200873926e-18 -1.093187444042383e-13)
"VIND:p" (-2.500000976426177e-12 -5.879889050806302e-14)
"VSUP:p" (-1.395846241360220e-01 2.838210087966980e-06)
"freq" 8.912509381337440e-03
"vdd!" (0.000000000000000e+00 0.000000000000000e+00)
"vout" (1.878492408284487e+04 -4.293044293440791e-01)
"vin_dm" (1.000000000000000e+00 0.000000000000000e+00)
"vin_cm" (0.000000000000000e+00 0.000000000000000e+00)
"vin_p" (5.000000000000000e-01 0.000000000000000e+00)
"net1" (-5.000000000000000e-01 0.000000000000000e+00)
"vbn" (1.160701231824623e-12 5.078814783658738e-08)
"vin_n" (-5.000000000000000e-01 -0.000000000000000e+00)
"I0.tail" (-3.559456010183986e-01 8.093711808062547e-06)
"I0.outd" (-1.765626467639432e+02 4.022733156245064e-03)
"I0.mirr" (8.847006789092901e-02 1.326570565968263e-05)
"I0.net1" (-1.765626467639432e+02 4.022733156245064e-03)
"VINC:p" (-2.803517618170302e-18 -1.226576486094978e-13)
"VIND:p" (-2.500001229247726e-12 -6.597344023674960e-14)
"VSUP:p" (-1.395846241210541e-01 3.184524095542895e-06)
"freq" 9.999999999999981e-03
"vdd!" (0.000000000000000e+00 0.000000000000000e+00)
"vout" (1.878492408030462e+04 -4.816874921724948e-01)
"vin_dm" (1.000000000000000e+00 0.000000000000000e+00)
"vin_cm" (0.000000000000000e+00 0.000000000000000e+00)
"vin_p" (5.000000000000000e-01 0.000000000000000e+00)
"net1" (-5.000000000000000e-01 0.000000000000000e+00)
"vbn" (1.461236276047218e-12 5.698523912476131e-08)
"vin_n" (-5.000000000000000e-01 -0.000000000000000e+00)
"I0.tail" (-3.559456009705069e-01 9.081294011219892e-06)
"I0.outd" (-1.765626467401401e+02 4.513580837429006e-03)
"I0.mirr" (8.847006796942528e-02 1.488436655748917e-05)
"I0.net1" (-1.765626467401401e+02 4.513580837429006e-03)
"VINC:p" (-3.529419571300233e-18 -1.376241452825291e-13)
"VIND:p" (-2.500001547531200e-12 -7.402341743125957e-14)
