HEADER
"PSFversion" "1.00"
"simulator" "spectre"
"version" "25.1.0.235.isr5"
"date" "7:37:27 PM, Sun Jul 19, 2026"
"design" "// r2r_bias_pos_loop.scs (SKY130) -- floating-pair isolation bench: two"
"analysis type" "ac"
"analysis name" "ac"
"analysis description" "AC Analysis `ac': freq = (1 mHz -> 10 GHz)"
"xVecSorted" "ascending"
"tolerance.relative" 1.000000000000000e-03
"start" 1.000000000000000e-03
"stop" 1.000000000000000e+10
"operating point producer" "stb"
TYPE
"sweep" FLOAT DOUBLE PROP(
"key" "sweep"
)
"V" COMPLEX DOUBLE PROP(
"units" "V"
"key" "node"
"tolerance" 1.000000000000000e-06
)
"I" COMPLEX DOUBLE PROP(
"units" "A"
"key" "branch"
"tolerance" 1.000000000000000e-12
)
"MMF" COMPLEX DOUBLE PROP(
"units" "A*turn"
"key" "node"
"tolerance" 1.000000000000000e-12
)
"Wb" COMPLEX DOUBLE PROP(
"units" "Wb"
"key" "node"
"tolerance" 1.000000000000000e-09
)
"Temp" COMPLEX DOUBLE PROP(
"units" "C"
"key" "node"
"tolerance" 1.000000000000000e-04
)
"Pwr" COMPLEX DOUBLE PROP(
"units" "W"
"key" "node"
"tolerance" 1.000000000000000e-09
)
"U" COMPLEX DOUBLE PROP(
"units" ""
"key" "node"
"tolerance" 1.000000000000000e-06
)
"V/Sec" COMPLEX DOUBLE PROP(
"units" "V/s"
"key" "node"
"tolerance" 9.999999999999999e-05
)
"I/Sec" COMPLEX DOUBLE PROP(
"units" "A/s"
"key" "node"
"tolerance" 1.000000000000000e-06
)
"1/Sec" COMPLEX DOUBLE PROP(
"units" "1/s"
"key" "node"
"tolerance" 9.999999999999999e-05
)
"HOD" COMPLEX DOUBLE PROP(
"units" ""
"key" "node"
"tolerance" 1.000000000000000e-02
)
"Q" COMPLEX DOUBLE PROP(
"units" "Coul"
"key" "node"
"tolerance" 1.000000000000000e-15
)
"Efield" COMPLEX DOUBLE PROP(
"units" "V/m"
"key" "node"
"tolerance" 1.000000000000000e-06
"sigtype" "optical"
)
SWEEP
"freq" "sweep" PROP(
"sweep_direction" 0
"units" "Hz"
"plot" 0
"grid" 3
)
TRACE
"vdd!" "V"
"vsn" "V"
"net5" "V"
"vsp" "V"
"net10" "V"
"net4" "V"
"net8" "V"
"net3" "V"
"vgn" "V"
"vgp" "V"
"VB_GN:p" "I"
"VB_GP:p" "I"
"VB_SN:p" "I"
"VB_SP:p" "I"
"VPRB:p" "I"
"VSUP:p" "I"
VALUE
"freq" 1.000000000000000e-03
"vdd!" (0.000000000000000e+00 0.000000000000000e+00)
"vsn" (-3.335357069379652e+05 -1.221422424738225e-04)
"net5" (0.000000000000000e+00 0.000000000000000e+00)
"vsp" (-8.152006287652031e+05 -2.978115842398822e-04)
"net10" (0.000000000000000e+00 0.000000000000000e+00)
"net4" (-3.335357069379652e+05 -1.221422424738225e-04)
"net8" (-8.152006287652031e+05 -2.978115842398822e-04)
"net3" (-8.152006287652031e+05 -2.978115842398822e-04)
"vgn" (0.000000000000000e+00 0.000000000000000e+00)
"vgp" (0.000000000000000e+00 0.000000000000000e+00)
"VB_GN:p" (4.018785312634665e-20 -1.098120513741599e-10)
"VB_GP:p" (5.321223426624308e-20 -1.456411522319264e-10)
"VB_SN:p" (0.000000000000000e+00 0.000000000000000e+00)
"VB_SP:p" (0.000000000000000e+00 0.000000000000000e+00)
"VPRB:p" (2.449469002676840e+02 8.961714982937216e-08)
"VSUP:p" (6.877510233967066e-02 -3.299897176641876e-11)
"freq" 1.122018454301963e-03
"vdd!" (0.000000000000000e+00 0.000000000000000e+00)
"vsn" (-3.335357069379652e+05 -1.370458501054540e-04)
"net5" (0.000000000000000e+00 0.000000000000000e+00)
"vsp" (-8.152006287652031e+05 -3.341500934220516e-04)
"net10" (0.000000000000000e+00 0.000000000000000e+00)
"net4" (-3.335357069379652e+05 -1.370458501054540e-04)
"net8" (-8.152006287652031e+05 -3.341500934220516e-04)
"net3" (-8.152006287652031e+05 -3.341500934220516e-04)
"vgn" (0.000000000000000e+00 0.000000000000000e+00)
"vgp" (0.000000000000000e+00 0.000000000000000e+00)
"VB_GN:p" (5.059350954620945e-20 -1.232111481465627e-10)
"VB_GP:p" (6.699023393611775e-20 -1.634120605100230e-10)
"VB_SN:p" (0.000000000000000e+00 0.000000000000000e+00)
"VB_SP:p" (0.000000000000000e+00 0.000000000000000e+00)
"VPRB:p" (2.449469002676840e+02 1.005520959320078e-07)
"VSUP:p" (6.877510233967066e-02 -3.702545529491131e-11)
"freq" 1.258925411794167e-03
"vdd!" (0.000000000000000e+00 0.000000000000000e+00)
"vsn" (-3.335357069379652e+05 -1.537679729038200e-04)
"net5" (0.000000000000000e+00 0.000000000000000e+00)
"vsp" (-8.152006287652031e+05 -3.749225713262669e-04)
"net10" (0.000000000000000e+00 0.000000000000000e+00)
"net4" (-3.335357069379652e+05 -1.537679729038200e-04)
"net8" (-8.152006287652031e+05 -3.749225713262669e-04)
"net3" (-8.152006287652031e+05 -3.749225713262669e-04)
"vgn" (0.000000000000000e+00 0.000000000000000e+00)
"vgp" (0.000000000000000e+00 0.000000000000000e+00)
"VB_GN:p" (6.369345483957384e-20 -1.382451819961764e-10)
"VB_GP:p" (8.433570784421460e-20 -1.833513475477549e-10)
"VB_SN:p" (0.000000000000000e+00 0.000000000000000e+00)
"VB_SP:p" (0.000000000000000e+00 0.000000000000000e+00)
"VPRB:p" (2.449469002676840e+02 1.128213072526999e-07)
"VSUP:p" (6.877510233967066e-02 -4.154324411982281e-11)
"freq" 1.412537544622754e-03
"vdd!" (0.000000000000000e+00 0.000000000000000e+00)
"vsn" (-3.335357069379652e+05 -1.725305032786903e-04)
"net5" (0.000000000000000e+00 0.000000000000000e+00)
"vsp" (-8.152006287652031e+05 -4.206700439624156e-04)
"net10" (0.000000000000000e+00 0.000000000000000e+00)
"net4" (-3.335357069379652e+05 -1.725305032786903e-04)
"net8" (-8.152006287652031e+05 -4.206700439624156e-04)
"net3" (-8.152006287652031e+05 -4.206700439624156e-04)
"vgn" (0.000000000000000e+00 0.000000000000000e+00)
"vgp" (0.000000000000000e+00 0.000000000000000e+00)
"VB_GN:p" (8.018530886250368e-20 -1.551136454180435e-10)
"VB_GP:p" (1.061723657267304e-19 -2.057235955697140e-10)
"VB_SN:p" (0.000000000000000e+00 0.000000000000000e+00)
"VB_SP:p" (0.000000000000000e+00 0.000000000000000e+00)
"VPRB:p" (2.449469002676840e+02 1.265875887782093e-07)
"VSUP:p" (6.877510233967066e-02 -4.661228655401273e-11)
"freq" 1.584893192461113e-03
"vdd!" (0.000000000000000e+00 0.000000000000000e+00)
"vsn" (-3.335357069379652e+05 -1.935824086086960e-04)
"net5" (0.000000000000000e+00 0.000000000000000e+00)
"vsp" (-8.152006287652031e+05 -4.719995524978487e-04)
"net10" (0.000000000000000e+00 0.000000000000000e+00)
"net4" (-3.335357069379652e+05 -1.935824086086960e-04)
"net8" (-8.152006287652031e+05 -4.719995524978487e-04)
"net3" (-8.152006287652031e+05 -4.719995524978487e-04)
"vgn" (0.000000000000000e+00 0.000000000000000e+00)
"vgp" (0.000000000000000e+00 0.000000000000000e+00)
"VB_GN:p" (1.009473229795699e-19 -1.740403726730960e-10)
"VB_GP:p" (1.336630892436851e-19 -2.308256707145728e-10)
"VB_SN:p" (0.000000000000000e+00 0.000000000000000e+00)
"VB_SP:p" (0.000000000000000e+00 0.000000000000000e+00)
"VPRB:p" (2.449469002676840e+02 1.420336106932661e-07)
"VSUP:p" (6.877510233967066e-02 -5.229984571081354e-11)
"freq" 1.778279410038922e-03
"vdd!" (0.000000000000000e+00 0.000000000000000e+00)
"vsn" (-3.335357069379652e+05 -2.172030348871801e-04)
"net5" (0.000000000000000e+00 0.000000000000000e+00)
"vsp" (-8.152006287652031e+05 -5.295922083248544e-04)
"net10" (0.000000000000000e+00 0.000000000000000e+00)
"net4" (-3.335357069379652e+05 -2.172030348871801e-04)
"net8" (-8.152006287652031e+05 -5.295922083248544e-04)
"net3" (-8.152006287652031e+05 -5.295922083248544e-04)
"vgn" (0.000000000000000e+00 0.000000000000000e+00)
"vgp" (0.000000000000000e+00 0.000000000000000e+00)
"VB_GN:p" (1.270851501515738e-19 -1.952765099328048e-10)
"VB_GP:p" (1.682718596677866e-19 -2.589906622683789e-10)
"VB_SN:p" (0.000000000000000e+00 0.000000000000000e+00)
"VB_SP:p" (0.000000000000000e+00 0.000000000000000e+00)
"VPRB:p" (2.449469002676840e+02 1.593643323301097e-07)
"VSUP:p" (6.877510233967066e-02 -5.868139204467820e-11)
"freq" 1.995262314968878e-03
"vdd!" (0.000000000000000e+00 0.000000000000000e+00)
"vsn" (-3.335357069379652e+05 -2.437058134738092e-04)
"net5" (0.000000000000000e+00 0.000000000000000e+00)
"vsp" (-8.152006287652031e+05 -5.942122309950165e-04)
"net10" (0.000000000000000e+00 0.000000000000000e+00)
"net4" (-3.335357069379652e+05 -2.437058134738092e-04)
"net8" (-8.152006287652031e+05 -5.942122309950165e-04)
"net3" (-8.152006287652031e+05 -5.942122309950165e-04)
"vgn" (0.000000000000000e+00 0.000000000000000e+00)
"vgp" (0.000000000000000e+00 0.000000000000000e+00)
"VB_GN:p" (1.599907249874936e-19 -2.191038478362876e-10)
"VB_GP:p" (2.118417202256386e-19 -2.905923025570083e-10)
"VB_SN:p" (0.000000000000000e+00 0.000000000000000e+00)
"VB_SP:p" (0.000000000000000e+00 0.000000000000000e+00)
"VPRB:p" (2.449469002676840e+02 1.788097218232687e-07)
"VSUP:p" (6.877510233967066e-02 -6.584160479825732e-11)
"freq" 2.238721138568338e-03
"vdd!" (0.000000000000000e+00 0.000000000000000e+00)
"vsn" (-3.335357069379652e+05 -2.734424201382860e-04)
"net5" (0.000000000000000e+00 0.000000000000000e+00)
"vsp" (-8.152006287652031e+05 -6.667170889483497e-04)
"net10" (0.000000000000000e+00 0.000000000000000e+00)
"net4" (-3.335357069379652e+05 -2.734424201382860e-04)
"net8" (-8.152006287652031e+05 -6.667170889483497e-04)
"net3" (-8.152006287652031e+05 -6.667170889483497e-04)
"vgn" (0.000000000000000e+00 0.000000000000000e+00)
"vgp" (0.000000000000000e+00 0.000000000000000e+00)
"VB_GN:p" (2.014163893381278e-19 -2.458385606808841e-10)
"VB_GP:p" (2.666929248702468e-19 -3.260499261470629e-10)
"VB_SN:p" (0.000000000000000e+00 0.000000000000000e+00)
"VB_SP:p" (0.000000000000000e+00 0.000000000000000e+00)
"VPRB:p" (2.449469002676840e+02 2.006278076997643e-07)
"VSUP:p" (6.877510233967066e-02 -7.387549564450142e-11)
"freq" 2.511886431509578e-03
"vdd!" (0.000000000000000e+00 0.000000000000000e+00)
"vsn" (-3.335357069379652e+05 -3.068074415841477e-04)
"net5" (0.000000000000000e+00 0.000000000000000e+00)
"vsp" (-8.152006287652031e+05 -7.480688775985318e-04)
"net10" (0.000000000000000e+00 0.000000000000000e+00)
"net4" (-3.335357069379652e+05 -3.068074415841477e-04)
"net8" (-8.152006287652031e+05 -7.480688775985318e-04)
"net3" (-8.152006287652031e+05 -7.480688775985318e-04)
"vgn" (0.000000000000000e+00 0.000000000000000e+00)
"vgp" (0.000000000000000e+00 0.000000000000000e+00)
"VB_GN:p" (2.535682108895967e-19 -2.758354018629849e-10)
"VB_GP:p" (3.357465002648662e-19 -3.658340341607968e-10)
"VB_SN:p" (0.000000000000000e+00 0.000000000000000e+00)
"VB_SP:p" (0.000000000000000e+00 0.000000000000000e+00)
"VPRB:p" (2.449469002676840e+02 2.251081026909698e-07)
"VSUP:p" (6.877510233967066e-02 -8.288966943383491e-11)
"freq" 2.818382931264451e-03
"vdd!" (0.000000000000000e+00 0.000000000000000e+00)
"vsn" (-3.335357069379652e+05 -3.442436113745853e-04)
"net5" (0.000000000000000e+00 0.000000000000000e+00)
"vsp" (-8.152006287652031e+05 -8.393470857545092e-04)
"net10" (0.000000000000000e+00 0.000000000000000e+00)
"net4" (-3.335357069379652e+05 -3.442436113745853e-04)
"net8" (-8.152006287652031e+05 -8.393470857545092e-04)
"net3" (-8.152006287652031e+05 -8.393470857545092e-04)
"vgn" (0.000000000000000e+00 0.000000000000000e+00)
"vgp" (0.000000000000000e+00 0.000000000000000e+00)
"VB_GN:p" (3.192234643120957e-19 -3.094924112400673e-10)
"VB_GP:p" (4.226798011043971e-19 -4.104725375401489e-10)
"VB_SN:p" (0.000000000000000e+00 0.000000000000000e+00)
"VB_SP:p" (0.000000000000000e+00 0.000000000000000e+00)
"VPRB:p" (2.449469002676840e+02 2.525754454198979e-07)
"VSUP:p" (6.877510233967066e-02 -9.300373877575217e-11)
"freq" 3.162277660168376e-03
"vdd!" (0.000000000000000e+00 0.000000000000000e+00)
"vsn" (-3.335357069379652e+05 -3.862476847378379e-04)
"net5" (0.000000000000000e+00 0.000000000000000e+00)
"vsp" (-8.152006287652031e+05 -9.417629197811316e-04)
"net10" (0.000000000000000e+00 0.000000000000000e+00)
"net4" (-3.335357069379652e+05 -3.862476847378379e-04)
"net8" (-8.152006287652031e+05 -9.417629197811316e-04)
"net3" (-8.152006287652031e+05 -9.417629197811316e-04)
"vgn" (0.000000000000000e+00 0.000000000000000e+00)
"vgp" (0.000000000000000e+00 0.000000000000000e+00)
"VB_GN:p" (4.018785312634656e-19 -3.472561968777678e-10)
"VB_GP:p" (5.321223426624295e-19 -4.605577621042025e-10)
"VB_SN:p" (0.000000000000000e+00 0.000000000000000e+00)
"VB_SP:p" (0.000000000000000e+00 0.000000000000000e+00)
"VPRB:p" (2.449469002676840e+02 2.833943108742416e-07)
"VSUP:p" (6.877510233967066e-02 -1.043519112254730e-10)
"freq" 3.548133892335751e-03
"vdd!" (0.000000000000000e+00 0.000000000000000e+00)
"vsn" (-3.335357069379652e+05 -4.333770302072610e-04)
"net5" (0.000000000000000e+00 0.000000000000000e+00)
"vsp" (-8.152006287652031e+05 -1.056675375571730e-03)
"net10" (0.000000000000000e+00 0.000000000000000e+00)
"net4" (-3.335357069379652e+05 -4.333770302072610e-04)
"net8" (-8.152006287652031e+05 -1.056675375571730e-03)
"net3" (-8.152006287652031e+05 -1.056675375571730e-03)
"vgn" (0.000000000000000e+00 0.000000000000000e+00)
"vgp" (0.000000000000000e+00 0.000000000000000e+00)
"VB_GN:p" (5.059350954620935e-19 -3.896278612675714e-10)
"VB_GP:p" (6.699023393611762e-19 -5.167543083529287e-10)
"VB_SN:p" (0.000000000000000e+00 0.000000000000000e+00)
"VB_SP:p" (0.000000000000000e+00 0.000000000000000e+00)
"VPRB:p" (2.449469002676840e+02 3.179736466439359e-07)
"VSUP:p" (6.877510233967066e-02 -1.170847701366609e-10)
"freq" 3.981071705534968e-03
"vdd!" (0.000000000000000e+00 0.000000000000000e+00)
"vsn" (-3.335357069379652e+05 -4.862570255631263e-04)
"net5" (0.000000000000000e+00 0.000000000000000e+00)
"vsp" (-8.152006287652031e+05 -1.185609271597939e-03)
"net10" (0.000000000000000e+00 0.000000000000000e+00)
"net4" (-3.335357069379652e+05 -4.862570255631263e-04)
"net8" (-8.152006287652031e+05 -1.185609271597939e-03)
"net3" (-8.152006287652031e+05 -1.185609271597939e-03)
"vgn" (0.000000000000000e+00 0.000000000000000e+00)
"vgp" (0.000000000000000e+00 0.000000000000000e+00)
"VB_GN:p" (6.369345483957373e-19 -4.371696506524202e-10)
"VB_GP:p" (8.433570784421447e-19 -5.798078703120332e-10)
"VB_SN:p" (0.000000000000000e+00 0.000000000000000e+00)
"VB_SP:p" (0.000000000000000e+00 0.000000000000000e+00)
"VPRB:p" (2.449469002676840e+02 3.567722995039972e-07)
"VSUP:p" (6.877510233967066e-02 -1.313712728110370e-10)
"freq" 4.466835921509626e-03
"vdd!" (0.000000000000000e+00 0.000000000000000e+00)
"vsn" (-3.335357069379652e+05 -5.455893562158093e-04)
"net5" (0.000000000000000e+00 0.000000000000000e+00)
"vsp" (-8.152006287652031e+05 -1.330275482324396e-03)
"net10" (0.000000000000000e+00 0.000000000000000e+00)
"net4" (-3.335357069379652e+05 -5.455893562158093e-04)
"net8" (-8.152006287652031e+05 -1.330275482324396e-03)
"net3" (-8.152006287652031e+05 -1.330275482324396e-03)
"vgn" (0.000000000000000e+00 0.000000000000000e+00)
"vgp" (0.000000000000000e+00 0.000000000000000e+00)
"VB_GN:p" (8.018530886250354e-19 -4.905124156927579e-10)
"VB_GP:p" (1.061723657267303e-18 -6.505551304396207e-10)
"VB_SN:p" (0.000000000000000e+00 0.000000000000000e+00)
"VB_SP:p" (0.000000000000000e+00 0.000000000000000e+00)
"VPRB:p" (2.449469002676840e+02 4.003051040431811e-07)
"VSUP:p" (6.877510233967066e-02 -1.474009924591213e-10)
"freq" 5.011872336272717e-03
"vdd!" (0.000000000000000e+00 0.000000000000000e+00)
"vsn" (-3.335357069379652e+05 -6.121613261448656e-04)
"net5" (0.000000000000000e+00 0.000000000000000e+00)
"vsp" (-8.152006287652031e+05 -1.492593640473417e-03)
"net10" (0.000000000000000e+00 0.000000000000000e+00)
"net4" (-3.335357069379652e+05 -6.121613261448656e-04)
"net8" (-8.152006287652031e+05 -1.492593640473417e-03)
"net3" (-8.152006287652031e+05 -1.492593640473417e-03)
"vgn" (0.000000000000000e+00 0.000000000000000e+00)
"vgp" (0.000000000000000e+00 0.000000000000000e+00)
"VB_GN:p" (1.009473229795697e-18 -5.503639824715103e-10)
"VB_GP:p" (1.336630892436848e-18 -7.299348618940754e-10)
"VB_SN:p" (0.000000000000000e+00 0.000000000000000e+00)
"VB_SP:p" (0.000000000000000e+00 0.000000000000000e+00)
"VPRB:p" (2.449469002676840e+02 4.491497140774498e-07)
"VSUP:p" (6.877510233967066e-02 -1.653866337215586e-10)
"freq" 5.623413251903483e-03
"vdd!" (0.000000000000000e+00 0.000000000000000e+00)
"vsn" (-3.335357069379652e+05 -6.868563049445022e-04)
"net5" (0.000000000000000e+00 0.000000000000000e+00)
"vsp" (-8.152006287652031e+05 -1.674717609384924e-03)
"net10" (0.000000000000000e+00 0.000000000000000e+00)
"net4" (-3.335357069379652e+05 -6.868563049445022e-04)
"net8" (-8.152006287652031e+05 -1.674717609384924e-03)
"net3" (-8.152006287652031e+05 -1.674717609384924e-03)
"vgn" (0.000000000000000e+00 0.000000000000000e+00)
"vgp" (0.000000000000000e+00 0.000000000000000e+00)
"VB_GN:p" (1.270851501515736e-18 -6.175185449161566e-10)
"VB_GP:p" (1.682718596677863e-18 -8.190003854835075e-10)
"VB_SN:p" (0.000000000000000e+00 0.000000000000000e+00)
"VB_SP:p" (0.000000000000000e+00 0.000000000000000e+00)
"VPRB:p" (2.449469002676840e+02 5.039542679406719e-07)
"VSUP:p" (6.877510233967066e-02 -1.855668551304681e-10)
"freq" 6.309573444801923e-03
"vdd!" (0.000000000000000e+00 0.000000000000000e+00)
"vsn" (-3.335357069379652e+05 -7.706654496013883e-04)
"net5" (0.000000000000000e+00 0.000000000000000e+00)
"vsp" (-8.152006287652031e+05 -1.879064063474352e-03)
"net10" (0.000000000000000e+00 0.000000000000000e+00)
"net4" (-3.335357069379652e+05 -7.706654496013883e-04)
"net8" (-8.152006287652031e+05 -1.879064063474352e-03)
"net3" (-8.152006287652031e+05 -1.879064063474352e-03)
"vgn" (0.000000000000000e+00 0.000000000000000e+00)
"vgp" (0.000000000000000e+00 0.000000000000000e+00)
"VB_GN:p" (1.599907249874933e-18 -6.928672032696237e-10)
"VB_GP:p" (2.118417202256382e-18 -9.189335465929170e-10)
"VB_SN:p" (0.000000000000000e+00 0.000000000000000e+00)
"VB_SP:p" (0.000000000000000e+00 0.000000000000000e+00)
"VPRB:p" (2.449469002676840e+02 5.654459887584855e-07)
"VSUP:p" (6.877510233967066e-02 -2.082094359631642e-10)
"freq" 7.079457843841368e-03
"vdd!" (0.000000000000000e+00 0.000000000000000e+00)
"vsn" (-3.335357069379652e+05 -8.647008565456773e-04)
"net5" (0.000000000000000e+00 0.000000000000000e+00)
"vsp" (-8.152006287652031e+05 -2.108344556033859e-03)
"net10" (0.000000000000000e+00 0.000000000000000e+00)
"net4" (-3.335357069379652e+05 -8.647008565456773e-04)
"net8" (-8.152006287652031e+05 -2.108344556033859e-03)
"net3" (-8.152006287652031e+05 -2.108344556033859e-03)
"vgn" (0.000000000000000e+00 0.000000000000000e+00)
"vgp" (0.000000000000000e+00 0.000000000000000e+00)
"VB_GN:p" (2.014163893381274e-18 -7.774097884491075e-10)
"VB_GP:p" (2.666929248702463e-18 -1.031060397554406e-09)
"VB_SN:p" (0.000000000000000e+00 0.000000000000000e+00)
"VB_SP:p" (0.000000000000000e+00 0.000000000000000e+00)
"VPRB:p" (2.449469002676840e+02 6.344408342942821e-07)
"VSUP:p" (6.877510233967066e-02 -2.336148295104731e-10)
"freq" 7.943282347242802e-03
"vdd!" (0.000000000000000e+00 0.000000000000000e+00)
"vsn" (-3.335357069379652e+05 -9.702103184949643e-04)
"net5" (0.000000000000000e+00 0.000000000000000e+00)
"vsp" (-8.152006287652031e+05 -2.365601499897068e-03)
"net10" (0.000000000000000e+00 0.000000000000000e+00)
"net4" (-3.335357069379652e+05 -9.702103184949643e-04)
"net8" (-8.152006287652031e+05 -2.365601499897068e-03)
"net3" (-8.152006287652031e+05 -2.365601499897068e-03)
"vgn" (0.000000000000000e+00 0.000000000000000e+00)
"vgp" (0.000000000000000e+00 0.000000000000000e+00)
"VB_GN:p" (2.535682108895962e-18 -8.722681291948839e-10)
"VB_GP:p" (3.357465002648656e-18 -1.156868793555963e-09)
"VB_SN:p" (0.000000000000000e+00 0.000000000000000e+00)
"VB_SP:p" (0.000000000000000e+00 0.000000000000000e+00)
"VPRB:p" (2.449469002676840e+02 7.118543242312329e-07)
"VSUP:p" (6.877510233967066e-02 -2.621201499093577e-10)
"freq" 8.912509381337440e-03
"vdd!" (0.000000000000000e+00 0.000000000000000e+00)
"vsn" (-3.335357069379652e+05 -1.088593881905535e-03)
"net5" (0.000000000000000e+00 0.000000000000000e+00)
"vsp" (-8.152006287652031e+05 -2.654248538408915e-03)
"net10" (0.000000000000000e+00 0.000000000000000e+00)
"net4" (-3.335357069379652e+05 -1.088593881905535e-03)
"net8" (-8.152006287652031e+05 -2.654248538408915e-03)
"net3" (-8.152006287652031e+05 -2.654248538408915e-03)
"vgn" (0.000000000000000e+00 0.000000000000000e+00)
"vgp" (0.000000000000000e+00 0.000000000000000e+00)
"VB_GN:p" (3.192234643120951e-18 -9.787009380561088e-10)
"VB_GP:p" (4.226798011043963e-18 -1.298028135575838e-09)
"VB_SN:p" (0.000000000000000e+00 0.000000000000000e+00)
"VB_SP:p" (0.000000000000000e+00 0.000000000000000e+00)
"VPRB:p" (2.449469002676840e+02 7.987136885759136e-07)
