HEADER
"PSFversion" "1.00"
"simulator" "spectre"
"version" "25.1.0.235.isr5"
"date" "6:46:53 PM, Fri Jul 17, 2026"
"design" "// Point Netlist Generated on: Jul 17 08:06:02 2026"
"analysis type" "ac"
"analysis name" "ac"
"analysis description" "AC Analysis `ac': freq = (1 mHz -> 10 GHz)"
"xVecSorted" "ascending"
"tolerance.relative" 1.000000000000000e-03
"start" 1.000000000000000e-03
"stop" 1.000000000000000e+10
"operating point producer" "ac"
TYPE
"sweep" FLOAT DOUBLE PROP(
"key" "sweep"
)
"V" COMPLEX DOUBLE PROP(
"units" "V"
"key" "node"
"tolerance" 1.000000000000000e-06
)
"I" COMPLEX DOUBLE PROP(
"units" "A"
"key" "branch"
"tolerance" 1.000000000000000e-12
)
"MMF" COMPLEX DOUBLE PROP(
"units" "A*turn"
"key" "node"
"tolerance" 1.000000000000000e-12
)
"Wb" COMPLEX DOUBLE PROP(
"units" "Wb"
"key" "node"
"tolerance" 1.000000000000000e-09
)
"Temp" COMPLEX DOUBLE PROP(
"units" "C"
"key" "node"
"tolerance" 1.000000000000000e-04
)
"Pwr" COMPLEX DOUBLE PROP(
"units" "W"
"key" "node"
"tolerance" 1.000000000000000e-09
)
"U" COMPLEX DOUBLE PROP(
"units" ""
"key" "node"
"tolerance" 1.000000000000000e-06
)
"V/Sec" COMPLEX DOUBLE PROP(
"units" "V/s"
"key" "node"
"tolerance" 9.999999999999999e-05
)
"I/Sec" COMPLEX DOUBLE PROP(
"units" "A/s"
"key" "node"
"tolerance" 1.000000000000000e-06
)
"1/Sec" COMPLEX DOUBLE PROP(
"units" "1/s"
"key" "node"
"tolerance" 9.999999999999999e-05
)
"HOD" COMPLEX DOUBLE PROP(
"units" ""
"key" "node"
"tolerance" 1.000000000000000e-02
)
"Q" COMPLEX DOUBLE PROP(
"units" "Coul"
"key" "node"
"tolerance" 1.000000000000000e-15
)
"Efield" COMPLEX DOUBLE PROP(
"units" "V/m"
"key" "node"
"tolerance" 1.000000000000000e-06
"sigtype" "optical"
)
SWEEP
"freq" "sweep" PROP(
"sweep_direction" 0
"units" "Hz"
"plot" 0
"grid" 3
)
TRACE
"vdd!" "V"
"vout" "V"
"vin_dm" "V"
"vin_cm" "V"
"vin_p" "V"
"net1" "V"
"vbn" "V"
"vin_n" "V"
"I0.tail" "V"
"I0.outd" "V"
"I0.mirr" "V"
"I0.net1" "V"
"VINC:p" "I"
"VIND:p" "I"
"VSUP:p" "I"
VALUE
"freq" 1.000000000000000e-03
"vdd!" (0.000000000000000e+00 0.000000000000000e+00)
"vout" (1.878492407377879e+04 -1.985353093737940e-02)
"vin_dm" (1.000000000000000e+00 0.000000000000000e+00)
"vin_cm" (0.000000000000000e+00 0.000000000000000e+00)
"vin_p" (5.000000000000000e-01 0.000000000000000e+00)
"net1" (-5.000000000000000e-01 0.000000000000000e+00)
"vbn" (6.022764882176312e-15 5.698523910619694e-09)
"vin_n" (-5.000000000000000e-01 -0.000000000000000e+00)
"I0.tail" (-3.559456009700256e-01 3.705403535569912e-07)
"I0.outd" (-1.765626466744130e+02 1.856970133977281e-04)
"I0.mirr" (8.847006843270179e-02 6.073036896776019e-07)
"I0.net1" (-1.765626466744121e+02 1.865905524084598e-04)
"VINC:p" (-1.450629709849799e-20 -1.376241452362905e-14)
"VIND:p" (-2.500000006367005e-12 -7.402341740905188e-15)
"VSUP:p" (-1.395846240345151e-01 1.469083680887199e-07)
"freq" 1.122018454301963e-03
"vdd!" (0.000000000000000e+00 0.000000000000000e+00)
"vout" (1.878492407377336e+04 -2.227602809478819e-02)
"vin_dm" (1.000000000000000e+00 0.000000000000000e+00)
"vin_cm" (0.000000000000000e+00 0.000000000000000e+00)
"vin_p" (5.000000000000000e-01 0.000000000000000e+00)
"net1" (-5.000000000000000e-01 0.000000000000000e+00)
"vbn" (7.582211759431064e-15 6.393848989994441e-09)
"vin_n" (-5.000000000000000e-01 -0.000000000000000e+00)
"I0.tail" (-3.559456009699243e-01 4.157531147543980e-07)
"I0.outd" (-1.765626466743622e+02 2.083554759409496e-04)
"I0.mirr" (8.847006843286788e-02 6.814059471837447e-07)
"I0.net1" (-1.765626466743610e+02 2.093580432006290e-04)
"VINC:p" (-1.826234624259397e-20 -1.544168307126071e-14)
"VIND:p" (-2.500000008015584e-12 -8.305564038343389e-15)
"VSUP:p" (-1.395846240344749e-01 1.648339000868817e-07)
"freq" 1.258925411794167e-03
"vdd!" (0.000000000000000e+00 0.000000000000000e+00)
"vout" (1.878492407376652e+04 -2.499411461089226e-02)
"vin_dm" (1.000000000000000e+00 0.000000000000000e+00)
"vin_cm" (0.000000000000000e+00 0.000000000000000e+00)
"vin_p" (5.000000000000000e-01 0.000000000000000e+00)
"net1" (-5.000000000000000e-01 0.000000000000000e+00)
"vbn" (9.545439061548851e-15 7.174016560791118e-09)
"vin_n" (-5.000000000000000e-01 -0.000000000000000e+00)
"I0.tail" (-3.559456009697967e-01 4.664826671877865e-07)
"I0.outd" (-1.765626466742982e+02 2.337786890605291e-04)
"I0.mirr" (8.847006843307705e-02 7.645500476109923e-07)
"I0.net1" (-1.765626466742967e+02 2.349035880275679e-04)
"VINC:p" (-2.299093168634385e-20 -1.732585337143044e-14)
"VIND:p" (-2.500000010091023e-12 -9.318996124405260e-15)
"VSUP:p" (-1.395846240344243e-01 1.849466777919799e-07)
"freq" 1.412537544622754e-03
"vdd!" (0.000000000000000e+00 0.000000000000000e+00)
"vout" (1.878492407375791e+04 -2.804385784234661e-02)
"vin_dm" (1.000000000000000e+00 0.000000000000000e+00)
"vin_cm" (0.000000000000000e+00 0.000000000000000e+00)
"vin_p" (5.000000000000000e-01 0.000000000000000e+00)
"net1" (-5.000000000000000e-01 0.000000000000000e+00)
"vbn" (1.201699580131102e-14 8.049378972671850e-09)
"vin_n" (-5.000000000000000e-01 -0.000000000000000e+00)
"I0.tail" (-3.559456009696360e-01 5.234021611964578e-07)
"I0.outd" (-1.765626466742177e+02 2.623040033483140e-04)
"I0.mirr" (8.847006843334050e-02 8.578392626565851e-07)
"I0.net1" (-1.765626466742158e+02 2.635661607485562e-04)
"VINC:p" (-2.894386802908795e-20 -1.943992721926596e-14)
"VIND:p" (-2.500000012703845e-12 -1.045608562714728e-14)
"VSUP:p" (-1.395846240343606e-01 2.075135855443455e-07)
"freq" 1.584893192461113e-03
"vdd!" (0.000000000000000e+00 0.000000000000000e+00)
"vout" (1.878492407374707e+04 -3.146572602891557e-02)
"vin_dm" (1.000000000000000e+00 0.000000000000000e+00)
"vin_cm" (0.000000000000000e+00 0.000000000000000e+00)
"vin_p" (5.000000000000000e-01 0.000000000000000e+00)
"net1" (-5.000000000000000e-01 0.000000000000000e+00)
"vbn" (1.512850138768551e-14 9.031551753002781e-09)
"vin_n" (-5.000000000000000e-01 -0.000000000000000e+00)
"I0.tail" (-3.559456009694337e-01 5.872668838836178e-07)
"I0.outd" (-1.765626466741163e+02 2.943099323939224e-04)
"I0.mirr" (8.847006843367190e-02 9.625114835249223e-07)
"I0.net1" (-1.765626466741139e+02 2.957260962892271e-04)
"VINC:p" (-3.643817112987107e-20 -2.181195709029089e-14)
"VIND:p" (-2.500000015993193e-12 -1.173192103341525e-14)
"VSUP:p" (-1.395846240342803e-01 2.328340724989903e-07)
"freq" 1.778279410038922e-03
"vdd!" (0.000000000000000e+00 0.000000000000000e+00)
"vout" (1.878492407373343e+04 -3.530512528242728e-02)
"vin_dm" (1.000000000000000e+00 0.000000000000000e+00)
"vin_cm" (0.000000000000000e+00 0.000000000000000e+00)
"vin_p" (5.000000000000000e-01 0.000000000000000e+00)
"net1" (-5.000000000000000e-01 0.000000000000000e+00)
"vbn" (1.904565483930679e-14 1.013356773784501e-08)
"vin_n" (-5.000000000000000e-01 -0.000000000000000e+00)
"I0.tail" (-3.559456009691790e-01 6.589242813173488e-07)
"I0.outd" (-1.765626466739886e+02 3.302211754301044e-04)
"I0.mirr" (8.847006843408946e-02 1.079955646991738e-06)
"I0.net1" (-1.765626466739856e+02 3.318101374549514e-04)
"VINC:p" (-4.587293947837870e-20 -2.447341837973121e-14)
"VIND:p" (-2.500000020134237e-12 -1.316343190389749e-14)
"VSUP:p" (-1.395846240341793e-01 2.612441261339588e-07)
"freq" 1.995262314968878e-03
"vdd!" (0.000000000000000e+00 0.000000000000000e+00)
"vout" (1.878492407371624e+04 -3.961300209828997e-02)
"vin_dm" (1.000000000000000e+00 0.000000000000000e+00)
"vin_cm" (0.000000000000000e+00 0.000000000000000e+00)
"vin_p" (5.000000000000000e-01 0.000000000000000e+00)
"net1" (-5.000000000000000e-01 0.000000000000000e+00)
"vbn" (2.397705886144192e-14 1.137005000977070e-08)
"vin_n" (-5.000000000000000e-01 -0.000000000000000e+00)
"I0.tail" (-3.559456009688583e-01 7.393252036250470e-07)
"I0.outd" (-1.765626466738279e+02 3.705142528335241e-04)
"I0.mirr" (8.847006843461513e-02 1.211730165751238e-06)
"I0.net1" (-1.765626466738242e+02 3.722970975485857e-04)
"VINC:p" (-5.775060926316732e-20 -2.745962706188622e-14)
"VIND:p" (-2.500000025347503e-12 -1.476961351810921e-14)
"VSUP:p" (-1.395846240340522e-01 2.931207306000233e-07)
"freq" 2.238721138568338e-03
"vdd!" (0.000000000000000e+00 0.000000000000000e+00)
"vout" (1.878492407369461e+04 -4.444651938453256e-02)
"vin_dm" (1.000000000000000e+00 0.000000000000000e+00)
"vin_cm" (0.000000000000000e+00 0.000000000000000e+00)
"vin_p" (5.000000000000000e-01 0.000000000000000e+00)
"net1" (-5.000000000000000e-01 0.000000000000000e+00)
"vbn" (3.018532870071899e-14 1.275740593728425e-08)
"vin_n" (-5.000000000000000e-01 -0.000000000000000e+00)
"I0.tail" (-3.559456009684547e-01 8.295365221969049e-07)
"I0.outd" (-1.765626466736256e+02 4.157238292606390e-04)
"I0.mirr" (8.847006843527672e-02 1.359583607605701e-06)
"I0.net1" (-1.765626466736209e+02 4.177242139320906e-04)
"VINC:p" (-7.270370950434361e-20 -3.081020831165057e-14)
"VIND:p" (-2.500000031910615e-12 -1.657177893021076e-14)
"VSUP:p" (-1.395846240338922e-01 3.288868690713218e-07)
"freq" 2.511886431509578e-03
"vdd!" (0.000000000000000e+00 0.000000000000000e+00)
"vout" (1.878492407366739e+04 -4.986981497886320e-02)
"vin_dm" (1.000000000000000e+00 0.000000000000000e+00)
"vin_cm" (0.000000000000000e+00 0.000000000000000e+00)
"vin_p" (5.000000000000000e-01 0.000000000000000e+00)
"net1" (-5.000000000000000e-01 0.000000000000000e+00)
"vbn" (3.800107736463986e-14 1.431404489063362e-08)
"vin_n" (-5.000000000000000e-01 -0.000000000000000e+00)
"I0.tail" (-3.559456009679466e-01 9.307552864210486e-07)
"I0.outd" (-1.765626466733710e+02 4.664498083228395e-04)
"I0.mirr" (8.847006843610938e-02 1.525477897897825e-06)
"I0.net1" (-1.765626466733650e+02 4.686942768399077e-04)
"VINC:p" (-9.152854744920288e-20 -3.456962230650970e-14)
"VIND:p" (-2.500000040173085e-12 -1.859384178028699e-14)
"VSUP:p" (-1.395846240336907e-01 3.690171364750819e-07)
"freq" 2.818382931264451e-03
"vdd!" (0.000000000000000e+00 0.000000000000000e+00)
"vout" (1.878492407363310e+04 -5.595485271880687e-02)
"vin_dm" (1.000000000000000e+00 0.000000000000000e+00)
"vin_cm" (0.000000000000000e+00 0.000000000000000e+00)
"vin_p" (5.000000000000000e-01 0.000000000000000e+00)
"net1" (-5.000000000000000e-01 0.000000000000000e+00)
"vbn" (4.784052196981394e-14 1.606062252296834e-08)
"vin_n" (-5.000000000000000e-01 -0.000000000000000e+00)
"I0.tail" (-3.559456009673068e-01 1.044324607801620e-06)
"I0.outd" (-1.765626466730503e+02 5.233652929428844e-04)
"I0.mirr" (8.847006843715821e-02 1.711614353068002e-06)
"I0.net1" (-1.765626466730428e+02 5.258836280391301e-04)
"VINC:p" (-1.152276144023453e-19 -3.878775418608209e-14)
"VIND:p" (-2.500000050574917e-12 -2.086263361382189e-14)
"VSUP:p" (-1.395846240334370e-01 4.140440370779525e-07)
"freq" 3.162277660168376e-03
"vdd!" (0.000000000000000e+00 0.000000000000000e+00)
"vout" (1.878492407358995e+04 -6.278237735810549e-02)
"vin_dm" (1.000000000000000e+00 0.000000000000000e+00)
"vin_cm" (0.000000000000000e+00 0.000000000000000e+00)
"vin_p" (5.000000000000000e-01 0.000000000000000e+00)
"net1" (-5.000000000000000e-01 0.000000000000000e+00)
"vbn" (6.022764882115756e-14 1.802031485830684e-08)
"vin_n" (-5.000000000000000e-01 -0.000000000000000e+00)
"I0.tail" (-3.559456009665014e-01 1.171751482232386e-06)
"I0.outd" (-1.765626466726467e+02 5.872255170217202e-04)
"I0.mirr" (8.847006843847827e-02 1.920462890786002e-06)
"I0.net1" (-1.765626466726373e+02 5.900511354738178e-04)
"VINC:p" (-1.450629718937477e-19 -4.352057599761263e-14)
"VIND:p" (-2.500000063670048e-12 -2.340825992000485e-14)
"VSUP:p" (-1.395846240331177e-01 4.645650504940816e-07)
"freq" 3.548133892335751e-03
"vdd!" (0.000000000000000e+00 0.000000000000000e+00)
"vout" (1.878492407353563e+04 -7.044298600054036e-02)
"vin_dm" (1.000000000000000e+00 0.000000000000000e+00)
"vin_cm" (0.000000000000000e+00 0.000000000000000e+00)
"vin_p" (5.000000000000000e-01 0.000000000000000e+00)
"net1" (-5.000000000000000e-01 0.000000000000000e+00)
"vbn" (7.582211759335097e-14 2.021912582329367e-08)
"vin_n" (-5.000000000000000e-01 -0.000000000000000e+00)
"I0.tail" (-3.559456009654874e-01 1.314726786916614e-06)
"I0.outd" (-1.765626466721386e+02 6.588778669334764e-04)
"I0.mirr" (8.847006844014005e-02 2.154794804257759e-06)
"I0.net1" (-1.765626466721267e+02 6.620482629815368e-04)
"VINC:p" (-1.826234615171720e-19 -4.883088941103161e-14)
"VIND:p" (-2.500000080155841e-12 -2.626449961328063e-14)
"VSUP:p" (-1.395846240327157e-01 5.212505598765758e-07)
"freq" 3.981071705534968e-03
"vdd!" (0.000000000000000e+00 0.000000000000000e+00)
"vout" (1.878492407346723e+04 -7.903833026845342e-02)
"vin_dm" (1.000000000000000e+00 0.000000000000000e+00)
"vin_cm" (0.000000000000000e+00 0.000000000000000e+00)
"vin_p" (5.000000000000000e-01 0.000000000000000e+00)
"net1" (-5.000000000000000e-01 0.000000000000000e+00)
"vbn" (9.545439061396764e-14 2.268623230350627e-08)
"vin_n" (-5.000000000000000e-01 -0.000000000000000e+00)
"I0.tail" (-3.559456009642109e-01 1.475147717280196e-06)
"I0.outd" (-1.765626466714988e+02 7.392731258277827e-04)
"I0.mirr" (8.847006844223225e-02 2.417719535602390e-06)
"I0.net1" (-1.765626466714838e+02 7.428303687011396e-04)
"VINC:p" (-2.299093165605159e-19 -5.478915905895684e-14)
"VIND:p" (-2.500000100910226e-12 -2.946925325902032e-14)
"VSUP:p" (-1.395846240322096e-01 5.848527474946193e-07)
"freq" 4.466835921509626e-03
"vdd!" (0.000000000000000e+00 0.000000000000000e+00)
"vout" (1.878492407338112e+04 -8.868246515801169e-02)
"vin_dm" (1.000000000000000e+00 0.000000000000000e+00)
"vin_cm" (0.000000000000000e+00 0.000000000000000e+00)
"vin_p" (5.000000000000000e-01 0.000000000000000e+00)
"net1" (-5.000000000000000e-01 0.000000000000000e+00)
"vbn" (1.201699580106997e-13 2.545437130299870e-08)
"vin_n" (-5.000000000000000e-01 -0.000000000000000e+00)
"I0.tail" (-3.559456009626038e-01 1.655142961602208e-06)
"I0.outd" (-1.765626466706934e+02 8.294780899444673e-04)
"I0.mirr" (8.847006844486636e-02 2.712725936259819e-06)
"I0.net1" (-1.765626466706746e+02 8.334693820947895e-04)
"VINC:p" (-2.894386810986731e-19 -6.147444755955414e-14)
"VIND:p" (-2.500000127038448e-12 -3.306504599099573e-14)
"VSUP:p" (-1.395846240315724e-01 6.562155757351612e-07)
"freq" 5.011872336272717e-03
"vdd!" (0.000000000000000e+00 0.000000000000000e+00)
"vout" (1.878492407327273e+04 -9.950336247970584e-02)
"vin_dm" (1.000000000000000e+00 0.000000000000000e+00)
"vin_cm" (0.000000000000000e+00 0.000000000000000e+00)
"vin_p" (5.000000000000000e-01 0.000000000000000e+00)
"net1" (-5.000000000000000e-01 0.000000000000000e+00)
"vbn" (1.512850138730349e-13 2.856027434445404e-08)
"vin_n" (-5.000000000000000e-01 -0.000000000000000e+00)
"I0.tail" (-3.559456009605808e-01 1.857100947414968e-06)
"I0.outd" (-1.765626466696796e+02 9.306897243514659e-04)
"I0.mirr" (8.847006844818225e-02 3.043728561929526e-06)
"I0.net1" (-1.765626466696558e+02 9.351680278006122e-04)
"VINC:p" (-3.643817106928655e-19 -6.897546462944109e-14)
"VIND:p" (-2.500000159931930e-12 -3.709959179406613e-14)
"VSUP:p" (-1.395846240307703e-01 7.362859859709900e-07)
"freq" 5.623413251903483e-03
"vdd!" (0.000000000000000e+00 0.000000000000000e+00)
"vout" (1.878492407313626e+04 -1.116446089665164e-01)
"vin_dm" (1.000000000000000e+00 0.000000000000000e+00)
"vin_cm" (0.000000000000000e+00 0.000000000000000e+00)
"vin_p" (5.000000000000000e-01 0.000000000000000e+00)
"net1" (-5.000000000000000e-01 0.000000000000000e+00)
"vbn" (1.904565483870130e-13 3.204515487417154e-08)
"vin_n" (-5.000000000000000e-01 -0.000000000000000e+00)
"I0.tail" (-3.559456009580337e-01 2.083701534486116e-06)
"I0.outd" (-1.765626466684031e+02 1.044251045943966e-03)
"I0.mirr" (8.847006845235691e-02 3.415119616346092e-06)
"I0.net1" (-1.765626466683732e+02 1.049275785057835e-03)
"VINC:p" (-4.587293952886580e-19 -7.739174420772447e-14)
"VIND:p" (-2.500000201342371e-12 -4.162642663976576e-14)
"VSUP:p" (-1.395846240297606e-01 8.261264638973656e-07)
"freq" 6.309573444801923e-03
"vdd!" (0.000000000000000e+00 0.000000000000000e+00)
"vout" (1.878492407296446e+04 -1.252673115826123e-01)
"vin_dm" (1.000000000000000e+00 0.000000000000000e+00)
"vin_cm" (0.000000000000000e+00 0.000000000000000e+00)
"vin_p" (5.000000000000000e-01 0.000000000000000e+00)
"net1" (-5.000000000000000e-01 0.000000000000000e+00)
"vbn" (2.397705886048234e-13 3.595525513945615e-08)
"vin_n" (-5.000000000000000e-01 -0.000000000000000e+00)
"I0.tail" (-3.559456009548273e-01 2.337951574929361e-06)
"I0.outd" (-1.765626466667962e+02 1.171668944462542e-03)
"I0.mirr" (8.847006845761225e-02 3.831827233153913e-06)
"I0.net1" (-1.765626466667586e+02 1.177306794476305e-03)
"VINC:p" (-5.775060928336216e-19 -8.683496521089194e-14)
"VIND:p" (-2.500000253475027e-12 -4.670561887611643e-14)
"VSUP:p" (-1.395846240284893e-01 9.269291380715921e-07)
"freq" 7.079457843841368e-03
"vdd!" (0.000000000000000e+00 0.000000000000000e+00)
"vout" (1.878492407274817e+04 -1.405522353148668e-01)
"vin_dm" (1.000000000000000e+00 0.000000000000000e+00)
"vin_cm" (0.000000000000000e+00 0.000000000000000e+00)
"vin_p" (5.000000000000000e-01 0.000000000000000e+00)
"net1" (-5.000000000000000e-01 0.000000000000000e+00)
"vbn" (3.018532869919815e-13 4.034245979514079e-08)
"vin_n" (-5.000000000000000e-01 -0.000000000000000e+00)
"I0.tail" (-3.559456009507906e-01 2.623224812304878e-06)
"I0.outd" (-1.765626466647732e+02 1.314634178004337e-03)
"I0.mirr" (8.847006846422872e-02 4.299380869246020e-06)
"I0.net1" (-1.765626466647259e+02 1.320959949762293e-03)
"VINC:p" (-7.270370957502554e-19 -9.743043344417095e-14)
"VIND:p" (-2.500000319106153e-12 -5.240456629810570e-14)
"VSUP:p" (-1.395846240268889e-01 1.040031598734564e-06)
"freq" 7.943282347242802e-03
"vdd!" (0.000000000000000e+00 0.000000000000000e+00)
"vout" (1.878492407247589e+04 -1.577022018143869e-01)
"vin_dm" (1.000000000000000e+00 0.000000000000000e+00)
"vin_cm" (0.000000000000000e+00 0.000000000000000e+00)
"vin_p" (5.000000000000000e-01 0.000000000000000e+00)
"net1" (-5.000000000000000e-01 0.000000000000000e+00)
"vbn" (3.800107736222953e-13 4.526498438142687e-08)
"vin_n" (-5.000000000000000e-01 -0.000000000000000e+00)
"I0.tail" (-3.559456009457088e-01 2.943306649146218e-06)
"I0.outd" (-1.765626466622265e+02 1.475043808355580e-03)
"I0.mirr" (8.847006847255794e-02 4.823984677296929e-06)
"I0.net1" (-1.765626466621669e+02 1.482141441005606e-03)
"VINC:p" (-9.152854750978739e-19 -1.093187443334187e-13)
"VIND:p" (-2.500000401730845e-12 -5.879889047547171e-14)
"VSUP:p" (-1.395846240248741e-01 1.166934646820442e-06)
"freq" 8.912509381337440e-03
"vdd!" (0.000000000000000e+00 0.000000000000000e+00)
"vout" (1.878492407213310e+04 -1.769447807165659e-01)
"vin_dm" (1.000000000000000e+00 0.000000000000000e+00)
"vin_cm" (0.000000000000000e+00 0.000000000000000e+00)
"vin_p" (5.000000000000000e-01 0.000000000000000e+00)
"net1" (-5.000000000000000e-01 0.000000000000000e+00)
"vbn" (4.784052196599386e-13 5.078814780872429e-08)
"vin_n" (-5.000000000000000e-01 -0.000000000000000e+00)
"I0.tail" (-3.559456009393110e-01 3.302444376951470e-06)
"I0.outd" (-1.765626466590202e+02 1.655026373848610e-03)
"I0.mirr" (8.847006848304396e-02 5.412599831098286e-06)
"I0.net1" (-1.765626466589452e+02 1.662990048663650e-03)
"VINC:p" (-1.152276143720530e-18 -1.226576485409817e-13)
"VIND:p" (-2.500000505749170e-12 -6.597344020497943e-14)
"VSUP:p" (-1.395846240223375e-01 1.309322208672988e-06)
"freq" 9.999999999999981e-03
"vdd!" (0.000000000000000e+00 0.000000000000000e+00)
"vout" (1.878492407170155e+04 -1.985353093518403e-01)
"vin_dm" (1.000000000000000e+00 0.000000000000000e+00)
"vin_cm" (0.000000000000000e+00 0.000000000000000e+00)
"vin_p" (5.000000000000000e-01 0.000000000000000e+00)
"net1" (-5.000000000000000e-01 0.000000000000000e+00)
"vbn" (6.022764881510312e-13 5.698523909989531e-08)
"vin_n" (-5.000000000000000e-01 -0.000000000000000e+00)
"I0.tail" (-3.559456009312569e-01 3.705403535160176e-06)
"I0.outd" (-1.765626466549839e+02 1.856970133771941e-03)
"I0.mirr" (8.847006849624493e-02 6.073036896104449e-06)
"I0.net1" (-1.765626466548894e+02 1.865905523878270e-03)
"VINC:p" (-1.450629718533580e-18 -1.376241452211126e-13)
"VIND:p" (-2.500000636700481e-12 -7.402341740239005e-14)
"VSUP:p" (-1.395846240191443e-01 1.469083680724750e-06)
