HEADER
"PSFversion" "1.00"
"simulator" "spectre"
"version" "25.1.0.235.isr5"
"date" "5:02:13 PM, Sat Jul 18, 2026"
"design" "// tb_m0_acp.scs -- M0 testbench, PMOS AC variant (SKY130) -> psf_acp/"
"analysis type" "ac"
"analysis name" "ac"
"analysis description" "AC Analysis `ac': freq = (1 kHz -> 10 GHz)"
"xVecSorted" "ascending"
"tolerance.relative" 1.000000000000000e-03
"start" 1.000000000000000e+03
"stop" 1.000000000000000e+10
"operating point producer" "dcOpInfo"
TYPE
"sweep" FLOAT DOUBLE PROP(
"key" "sweep"
)
"V" COMPLEX DOUBLE PROP(
"units" "V"
"key" "node"
"tolerance" 1.000000000000000e-06
)
"I" COMPLEX DOUBLE PROP(
"units" "A"
"key" "branch"
"tolerance" 1.000000000000000e-12
)
"MMF" COMPLEX DOUBLE PROP(
"units" "A*turn"
"key" "node"
"tolerance" 1.000000000000000e-12
)
"Wb" COMPLEX DOUBLE PROP(
"units" "Wb"
"key" "node"
"tolerance" 1.000000000000000e-09
)
"Temp" COMPLEX DOUBLE PROP(
"units" "C"
"key" "node"
"tolerance" 1.000000000000000e-04
)
"Pwr" COMPLEX DOUBLE PROP(
"units" "W"
"key" "node"
"tolerance" 1.000000000000000e-09
)
"U" COMPLEX DOUBLE PROP(
"units" ""
"key" "node"
"tolerance" 1.000000000000000e-06
)
"V/Sec" COMPLEX DOUBLE PROP(
"units" "V/s"
"key" "node"
"tolerance" 9.999999999999999e-05
)
"I/Sec" COMPLEX DOUBLE PROP(
"units" "A/s"
"key" "node"
"tolerance" 1.000000000000000e-06
)
"1/Sec" COMPLEX DOUBLE PROP(
"units" "1/s"
"key" "node"
"tolerance" 9.999999999999999e-05
)
"HOD" COMPLEX DOUBLE PROP(
"units" ""
"key" "node"
"tolerance" 1.000000000000000e-02
)
"Q" COMPLEX DOUBLE PROP(
"units" "Coul"
"key" "node"
"tolerance" 1.000000000000000e-15
)
"Efield" COMPLEX DOUBLE PROP(
"units" "V/m"
"key" "node"
"tolerance" 1.000000000000000e-06
"sigtype" "optical"
)
SWEEP
"freq" "sweep" PROP(
"sweep_direction" 0
"units" "Hz"
"plot" 0
"grid" 3
)
TRACE
"vdd" "V"
"vin" "V"
"vinp" "V"
"vmid" "V"
"vout" "V"
"voutp" "V"
"VDD:p" "I"
"VIN:p" "I"
"VINP:p" "I"
VALUE
"freq" 1.000000000000000e+03
"vdd" (0.000000000000000e+00 0.000000000000000e+00)
"vin" (0.000000000000000e+00 0.000000000000000e+00)
"vinp" (1.000000000000000e+00 0.000000000000000e+00)
"vmid" (0.000000000000000e+00 0.000000000000000e+00)
"vout" (0.000000000000000e+00 0.000000000000000e+00)
"voutp" (-2.762852332151962e+00 3.281369783645866e-07)
"VDD:p" (2.762852332116715e-04 1.397542530478085e-12)
"VIN:p" (0.000000000000000e+00 0.000000000000000e+00)
"VINP:p" (-3.744667373796539e-19 -3.421124036651809e-11)
"freq" 1.122018454301963e+03
"vdd" (0.000000000000000e+00 0.000000000000000e+00)
"vin" (0.000000000000000e+00 0.000000000000000e+00)
"vinp" (1.000000000000000e+00 0.000000000000000e+00)
"vmid" (0.000000000000000e+00 0.000000000000000e+00)
"vout" (0.000000000000000e+00 0.000000000000000e+00)
"voutp" (-2.762852332151954e+00 3.681757452639496e-07)
"VDD:p" (2.762852332116709e-04 1.568068509868349e-12)
"VIN:p" (0.000000000000000e+00 0.000000000000000e+00)
"VINP:p" (-4.714256915588983e-19 -3.838564303579357e-11)
"freq" 1.258925411794167e+03
"vdd" (0.000000000000000e+00 0.000000000000000e+00)
"vin" (0.000000000000000e+00 0.000000000000000e+00)
"vinp" (1.000000000000000e+00 0.000000000000000e+00)
"vmid" (0.000000000000000e+00 0.000000000000000e+00)
"vout" (0.000000000000000e+00 0.000000000000000e+00)
"voutp" (-2.762852332151945e+00 4.130999806125291e-07)
"VDD:p" (2.762852332116701e-04 1.759401805682145e-12)
"VIN:p" (0.000000000000000e+00 0.000000000000000e+00)
"VINP:p" (-5.934897828761345e-19 -4.306939986640801e-11)
"freq" 1.412537544622754e+03
"vdd" (0.000000000000000e+00 0.000000000000000e+00)
"vin" (0.000000000000000e+00 0.000000000000000e+00)
"vinp" (1.000000000000000e+00 0.000000000000000e+00)
"vmid" (0.000000000000000e+00 0.000000000000000e+00)
"vout" (0.000000000000000e+00 0.000000000000000e+00)
"voutp" (-2.762852332151933e+00 4.635058017190395e-07)
"VDD:p" (2.762852332116690e-04 1.974081294507696e-12)
"VIN:p" (0.000000000000000e+00 0.000000000000000e+00)
"VINP:p" (-7.471593693029661e-19 -4.832466146582029e-11)
"freq" 1.584893192461113e+03
"vdd" (0.000000000000000e+00 0.000000000000000e+00)
"vin" (0.000000000000000e+00 0.000000000000000e+00)
"vinp" (1.000000000000000e+00 0.000000000000000e+00)
"vmid" (0.000000000000000e+00 0.000000000000000e+00)
"vout" (0.000000000000000e+00 0.000000000000000e+00)
"voutp" (-2.762852332151918e+00 5.200620632047869e-07)
"VDD:p" (2.762852332116678e-04 2.214955642730130e-12)
"VIN:p" (0.000000000000000e+00 0.000000000000000e+00)
"VINP:p" (-9.406179166756029e-19 -5.422116196254529e-11)
"freq" 1.778279410038922e+03
"vdd" (0.000000000000000e+00 0.000000000000000e+00)
"vin" (0.000000000000000e+00 0.000000000000000e+00)
"vinp" (1.000000000000000e+00 0.000000000000000e+00)
"vmid" (0.000000000000000e+00 0.000000000000000e+00)
"vout" (0.000000000000000e+00 0.000000000000000e+00)
"voutp" (-2.762852332151900e+00 5.835192322981221e-07)
"VDD:p" (2.762852332116662e-04 2.485221106603709e-12)
"VIN:p" (0.000000000000000e+00 0.000000000000000e+00)
"VINP:p" (-1.184167798091799e-18 -6.083714433567144e-11)
"freq" 1.995262314968879e+03
"vdd" (0.000000000000000e+00 0.000000000000000e+00)
"vin" (0.000000000000000e+00 0.000000000000000e+00)
"vinp" (1.000000000000000e+00 0.000000000000000e+00)
"vmid" (0.000000000000000e+00 0.000000000000000e+00)
"vout" (0.000000000000000e+00 0.000000000000000e+00)
"voutp" (-2.762852332151877e+00 6.547193470786031e-07)
"VDD:p" (2.762852332116641e-04 2.788463944630465e-12)
"VIN:p" (0.000000000000000e+00 0.000000000000000e+00)
"VINP:p" (-1.490778932846100e-18 -6.826039865165546e-11)
"freq" 2.238721138568338e+03
"vdd" (0.000000000000000e+00 0.000000000000000e+00)
"vin" (0.000000000000000e+00 0.000000000000000e+00)
"vinp" (1.000000000000000e+00 0.000000000000000e+00)
"vmid" (0.000000000000000e+00 0.000000000000000e+00)
"vout" (0.000000000000000e+00 0.000000000000000e+00)
"voutp" (-2.762852332151847e+00 7.346071898107192e-07)
"VDD:p" (2.762852332116615e-04 3.128708005031524e-12)
"VIN:p" (0.000000000000000e+00 0.000000000000000e+00)
"VINP:p" (-1.876779481927331e-18 -7.658942698516620e-11)
"freq" 2.511886431509578e+03
"vdd" (0.000000000000000e+00 0.000000000000000e+00)
"vin" (0.000000000000000e+00 0.000000000000000e+00)
"vinp" (1.000000000000000e+00 0.000000000000000e+00)
"vmid" (0.000000000000000e+00 0.000000000000000e+00)
"vout" (0.000000000000000e+00 0.000000000000000e+00)
"voutp" (-2.762852332151810e+00 8.242428236305243e-07)
"VDD:p" (2.762852332116583e-04 3.510468119768348e-12)
"VIN:p" (0.000000000000000e+00 0.000000000000000e+00)
"VINP:p" (-2.362725382132187e-18 -8.593475048176917e-11)
"freq" 2.818382931264452e+03
"vdd" (0.000000000000000e+00 0.000000000000000e+00)
"vin" (0.000000000000000e+00 0.000000000000000e+00)
"vinp" (1.000000000000000e+00 0.000000000000000e+00)
"vmid" (0.000000000000000e+00 0.000000000000000e+00)
"vout" (0.000000000000000e+00 0.000000000000000e+00)
"voutp" (-2.762852332151764e+00 9.248156589393952e-07)
"VDD:p" (2.762852332116543e-04 3.938810013619780e-12)
"VIN:p" (0.000000000000000e+00 0.000000000000000e+00)
"VINP:p" (-2.974495024657257e-18 -9.642037590637937e-11)
"freq" 3.162277660168377e+03
"vdd" (0.000000000000000e+00 0.000000000000000e+00)
"vin" (0.000000000000000e+00 0.000000000000000e+00)
"vinp" (1.000000000000000e+00 0.000000000000000e+00)
"vmid" (0.000000000000000e+00 0.000000000000000e+00)
"vout" (0.000000000000000e+00 0.000000000000000e+00)
"voutp" (-2.762852332151705e+00 1.037660236157416e-06)
"VDD:p" (2.762852332116492e-04 4.419417523272183e-12)
"VIN:p" (0.000000000000000e+00 0.000000000000000e+00)
"VINP:p" (-3.744667373796281e-18 -1.081854411376898e-10)
"freq" 3.548133892335752e+03
"vdd" (0.000000000000000e+00 0.000000000000000e+00)
"vin" (0.000000000000000e+00 0.000000000000000e+00)
"vinp" (1.000000000000000e+00 0.000000000000000e+00)
"vmid" (0.000000000000000e+00 0.000000000000000e+00)
"vout" (0.000000000000000e+00 0.000000000000000e+00)
"voutp" (-2.762852332151632e+00 1.164273934263932e-06)
"VDD:p" (2.762852332116428e-04 4.958668018378824e-12)
"VIN:p" (0.000000000000000e+00 0.000000000000000e+00)
"VINP:p" (-4.714256915588576e-18 -1.213860614432865e-10)
"freq" 3.981071705534969e+03
"vdd" (0.000000000000000e+00 0.000000000000000e+00)
"vin" (0.000000000000000e+00 0.000000000000000e+00)
"vinp" (1.000000000000000e+00 0.000000000000000e+00)
"vmid" (0.000000000000000e+00 0.000000000000000e+00)
"vout" (0.000000000000000e+00 0.000000000000000e+00)
"voutp" (-2.762852332151539e+00 1.306336840106850e-06)
"VDD:p" (2.762852332116348e-04 5.563717025380762e-12)
"VIN:p" (0.000000000000000e+00 0.000000000000000e+00)
"VINP:p" (-5.934897828760700e-18 -1.361974010343991e-10)
"freq" 4.466835921509626e+03
"vdd" (0.000000000000000e+00 0.000000000000000e+00)
"vin" (0.000000000000000e+00 0.000000000000000e+00)
"vinp" (1.000000000000000e+00 0.000000000000000e+00)
"vmid" (0.000000000000000e+00 0.000000000000000e+00)
"vout" (0.000000000000000e+00 0.000000000000000e+00)
"voutp" (-2.762852332151422e+00 1.465734042134354e-06)
"VDD:p" (2.762852332116246e-04 6.242593176995183e-12)
"VIN:p" (0.000000000000000e+00 0.000000000000000e+00)
"VINP:p" (-7.471593693028642e-18 -1.528159973885605e-10)
"freq" 5.011872336272717e+03
"vdd" (0.000000000000000e+00 0.000000000000000e+00)
"vin" (0.000000000000000e+00 0.000000000000000e+00)
"vinp" (1.000000000000000e+00 0.000000000000000e+00)
"vmid" (0.000000000000000e+00 0.000000000000000e+00)
"vout" (0.000000000000000e+00 0.000000000000000e+00)
"voutp" (-2.762852332151275e+00 1.644580644373292e-06)
"VDD:p" (2.762852332116118e-04 7.004304747293672e-12)
"VIN:p" (0.000000000000000e+00 0.000000000000000e+00)
"VINP:p" (-9.406179166754419e-18 -1.714623691825247e-10)
"freq" 5.623413251903484e+03
"vdd" (0.000000000000000e+00 0.000000000000000e+00)
"vin" (0.000000000000000e+00 0.000000000000000e+00)
"vinp" (1.000000000000000e+00 0.000000000000000e+00)
"vmid" (0.000000000000000e+00 0.000000000000000e+00)
"vout" (0.000000000000000e+00 0.000000000000000e+00)
"voutp" (-2.762852332151089e+00 1.845249832574557e-06)
"VDD:p" (2.762852332115958e-04 7.858959186026276e-12)
"VIN:p" (0.000000000000000e+00 0.000000000000000e+00)
"VINP:p" (-1.184167798091544e-17 -1.923839424411277e-10)
"freq" 6.309573444801924e+03
"vdd" (0.000000000000000e+00 0.000000000000000e+00)
"vin" (0.000000000000000e+00 0.000000000000000e+00)
"vinp" (1.000000000000000e+00 0.000000000000000e+00)
"vmid" (0.000000000000000e+00 0.000000000000000e+00)
"vout" (0.000000000000000e+00 0.000000000000000e+00)
"voutp" (-2.762852332150856e+00 2.070404364946134e-06)
"VDD:p" (2.762852332115755e-04 8.817897238338519e-12)
"VIN:p" (0.000000000000000e+00 0.000000000000000e+00)
"VINP:p" (-1.490778932845697e-17 -2.158583337303103e-10)
"freq" 7.079457843841369e+03
"vdd" (0.000000000000000e+00 0.000000000000000e+00)
"vin" (0.000000000000000e+00 0.000000000000000e+00)
"vinp" (1.000000000000000e+00 0.000000000000000e+00)
"vmid" (0.000000000000000e+00 0.000000000000000e+00)
"vout" (0.000000000000000e+00 0.000000000000000e+00)
"voutp" (-2.762852332150564e+00 2.323031905336719e-06)
"VDD:p" (2.762852332115500e-04 9.893843429569723e-12)
"VIN:p" (0.000000000000000e+00 0.000000000000000e+00)
"VINP:p" (-1.876779481926694e-17 -2.421970339602778e-10)
"freq" 7.943282347242804e+03
"vdd" (0.000000000000000e+00 0.000000000000000e+00)
"vin" (0.000000000000000e+00 0.000000000000000e+00)
"vinp" (1.000000000000000e+00 0.000000000000000e+00)
"vmid" (0.000000000000000e+00 0.000000000000000e+00)
"vout" (0.000000000000000e+00 0.000000000000000e+00)
"voutp" (-2.762852332150195e+00 2.606484667719796e-06)
"VDD:p" (2.762852332115179e-04 1.110107491197362e-11)
"VIN:p" (0.000000000000000e+00 0.000000000000000e+00)
"VINP:p" (-2.362725382131178e-17 -2.717495416806277e-10)
"freq" 8.912509381337442e+03
"vdd" (0.000000000000000e+00 0.000000000000000e+00)
"vin" (0.000000000000000e+00 0.000000000000000e+00)
"vinp" (1.000000000000000e+00 0.000000000000000e+00)
"vmid" (0.000000000000000e+00 0.000000000000000e+00)
"vout" (0.000000000000000e+00 0.000000000000000e+00)
"voutp" (-2.762852332149729e+00 2.924523898036371e-06)
"VDD:p" (2.762852332114776e-04 1.245561091385429e-11)
"VIN:p" (0.000000000000000e+00 0.000000000000000e+00)
"VINP:p" (-2.974495024655658e-17 -3.049080007137602e-10)
"freq" 9.999999999999985e+03
"vdd" (0.000000000000000e+00 0.000000000000000e+00)
"vin" (0.000000000000000e+00 0.000000000000000e+00)
"vinp" (1.000000000000000e+00 0.000000000000000e+00)
"vmid" (0.000000000000000e+00 0.000000000000000e+00)
"vout" (0.000000000000000e+00 0.000000000000000e+00)
"voutp" (-2.762852332149142e+00 3.281369783643413e-06)
"VDD:p" (2.762852332114267e-04 1.397542530499375e-11)
"VIN:p" (0.000000000000000e+00 0.000000000000000e+00)
"VINP:p" (-3.744667373793748e-17 -3.421124036651485e-10)
"freq" 1.122018454301962e+04
"vdd" (0.000000000000000e+00 0.000000000000000e+00)
"vin" (0.000000000000000e+00 0.000000000000000e+00)
"vinp" (1.000000000000000e+00 0.000000000000000e+00)
"vmid" (0.000000000000000e+00 0.000000000000000e+00)
"vout" (0.000000000000000e+00 0.000000000000000e+00)
"voutp" (-2.762852332148406e+00 3.681757452636032e-06)
"VDD:p" (2.762852332113626e-04 1.568068509898402e-11)
"VIN:p" (0.000000000000000e+00 0.000000000000000e+00)
"VINP:p" (-4.714256915584563e-17 -3.838564303578899e-10)
"freq" 1.258925411794165e+04
"vdd" (0.000000000000000e+00 0.000000000000000e+00)
"vin" (0.000000000000000e+00 0.000000000000000e+00)
"vinp" (1.000000000000000e+00 0.000000000000000e+00)
"vmid" (0.000000000000000e+00 0.000000000000000e+00)
"vout" (0.000000000000000e+00 0.000000000000000e+00)
"voutp" (-2.762852332147478e+00 4.130999806120399e-06)
"VDD:p" (2.762852332112820e-04 1.759401805724617e-11)
"VIN:p" (0.000000000000000e+00 0.000000000000000e+00)
"VINP:p" (-5.934897828754343e-17 -4.306939986640155e-10)
"freq" 1.412537544622752e+04
"vdd" (0.000000000000000e+00 0.000000000000000e+00)
"vin" (0.000000000000000e+00 0.000000000000000e+00)
"vinp" (1.000000000000000e+00 0.000000000000000e+00)
"vmid" (0.000000000000000e+00 0.000000000000000e+00)
"vout" (0.000000000000000e+00 0.000000000000000e+00)
"voutp" (-2.762852332146310e+00 4.635058017183487e-06)
"VDD:p" (2.762852332111805e-04 1.974081294567675e-11)
"VIN:p" (0.000000000000000e+00 0.000000000000000e+00)
"VINP:p" (-7.471593693018571e-17 -4.832466146581119e-10)
"freq" 1.584893192461111e+04
"vdd" (0.000000000000000e+00 0.000000000000000e+00)
"vin" (0.000000000000000e+00 0.000000000000000e+00)
"vinp" (1.000000000000000e+00 0.000000000000000e+00)
"vmid" (0.000000000000000e+00 0.000000000000000e+00)
"vout" (0.000000000000000e+00 0.000000000000000e+00)
"voutp" (-2.762852332144839e+00 5.200620632038116e-06)
"VDD:p" (2.762852332110528e-04 2.214955642814837e-11)
"VIN:p" (0.000000000000000e+00 0.000000000000000e+00)
"VINP:p" (-9.406179166738465e-17 -5.422116196253247e-10)
"freq" 1.778279410038919e+04
"vdd" (0.000000000000000e+00 0.000000000000000e+00)
"vin" (0.000000000000000e+00 0.000000000000000e+00)
"vinp" (1.000000000000000e+00 0.000000000000000e+00)
"vmid" (0.000000000000000e+00 0.000000000000000e+00)
"vout" (0.000000000000000e+00 0.000000000000000e+00)
"voutp" (-2.762852332142987e+00 5.835192322967446e-06)
"VDD:p" (2.762852332108920e-04 2.485221106723390e-11)
"VIN:p" (0.000000000000000e+00 0.000000000000000e+00)
"VINP:p" (-1.184167798089016e-16 -6.083714433565335e-10)
"freq" 1.995262314968876e+04
"vdd" (0.000000000000000e+00 0.000000000000000e+00)
"vin" (0.000000000000000e+00 0.000000000000000e+00)
"vinp" (1.000000000000000e+00 0.000000000000000e+00)
"vmid" (0.000000000000000e+00 0.000000000000000e+00)
"vout" (0.000000000000000e+00 0.000000000000000e+00)
"voutp" (-2.762852332140656e+00 6.547193470766575e-06)
"VDD:p" (2.762852332106896e-04 2.788463944799508e-11)
"VIN:p" (0.000000000000000e+00 0.000000000000000e+00)
"VINP:p" (-1.490778932841691e-16 -6.826039865162994e-10)
"freq" 2.238721138568335e+04
"vdd" (0.000000000000000e+00 0.000000000000000e+00)
"vin" (0.000000000000000e+00 0.000000000000000e+00)
"vinp" (1.000000000000000e+00 0.000000000000000e+00)
"vmid" (0.000000000000000e+00 0.000000000000000e+00)
"vout" (0.000000000000000e+00 0.000000000000000e+00)
"voutp" (-2.762852332137721e+00 7.346071898079712e-06)
"VDD:p" (2.762852332104346e-04 3.128708005270327e-11)
"VIN:p" (0.000000000000000e+00 0.000000000000000e+00)
"VINP:p" (-1.876779481920344e-16 -7.658942698513019e-10)
"freq" 2.511886431509575e+04
"vdd" (0.000000000000000e+00 0.000000000000000e+00)
"vin" (0.000000000000000e+00 0.000000000000000e+00)
"vinp" (1.000000000000000e+00 0.000000000000000e+00)
"vmid" (0.000000000000000e+00 0.000000000000000e+00)
"vout" (0.000000000000000e+00 0.000000000000000e+00)
"voutp" (-2.762852332134025e+00 8.242428236266424e-06)
"VDD:p" (2.762852332101138e-04 3.510468120105671e-11)
"VIN:p" (0.000000000000000e+00 0.000000000000000e+00)
"VINP:p" (-2.362725382121113e-16 -8.593475048171831e-10)
"freq" 2.818382931264447e+04
"vdd" (0.000000000000000e+00 0.000000000000000e+00)
"vin" (0.000000000000000e+00 0.000000000000000e+00)
"vinp" (1.000000000000000e+00 0.000000000000000e+00)
"vmid" (0.000000000000000e+00 0.000000000000000e+00)
"vout" (0.000000000000000e+00 0.000000000000000e+00)
"voutp" (-2.762852332129373e+00 9.248156589339123e-06)
"VDD:p" (2.762852332097099e-04 3.938810014096251e-11)
"VIN:p" (0.000000000000000e+00 0.000000000000000e+00)
"VINP:p" (-2.974495024639709e-16 -9.642037590630759e-10)
"freq" 3.162277660168372e+04
"vdd" (0.000000000000000e+00 0.000000000000000e+00)
"vin" (0.000000000000000e+00 0.000000000000000e+00)
"vinp" (1.000000000000000e+00 0.000000000000000e+00)
"vmid" (0.000000000000000e+00 0.000000000000000e+00)
"vout" (0.000000000000000e+00 0.000000000000000e+00)
"voutp" (-2.762852332123518e+00 1.037660236149672e-05)
"VDD:p" (2.762852332092012e-04 4.419417523945211e-11)
"VIN:p" (0.000000000000000e+00 0.000000000000000e+00)
"VINP:p" (-3.744667373768473e-16 -1.081854411375885e-09)
"freq" 3.548133892335746e+04
"vdd" (0.000000000000000e+00 0.000000000000000e+00)
"vin" (0.000000000000000e+00 0.000000000000000e+00)
"vinp" (1.000000000000000e+00 0.000000000000000e+00)
"vmid" (0.000000000000000e+00 0.000000000000000e+00)
"vout" (0.000000000000000e+00 0.000000000000000e+00)
"voutp" (-2.762852332116146e+00 1.164273934252993e-05)
"VDD:p" (2.762852332085610e-04 4.958668019329539e-11)
"VIN:p" (0.000000000000000e+00 0.000000000000000e+00)
"VINP:p" (-4.714256915544505e-16 -1.213860614431434e-09)
"freq" 3.981071705534963e+04
"vdd" (0.000000000000000e+00 0.000000000000000e+00)
"vin" (0.000000000000000e+00 0.000000000000000e+00)
"vinp" (1.000000000000000e+00 0.000000000000000e+00)
"vmid" (0.000000000000000e+00 0.000000000000000e+00)
"vout" (0.000000000000000e+00 0.000000000000000e+00)
"voutp" (-2.762852332106865e+00 1.306336840091400e-05)
"VDD:p" (2.762852332077549e-04 5.563717026723665e-11)
"VIN:p" (0.000000000000000e+00 0.000000000000000e+00)
"VINP:p" (-5.934897828690863e-16 -1.361974010341970e-09)
"freq" 4.466835921509621e+04
"vdd" (0.000000000000000e+00 0.000000000000000e+00)
"vin" (0.000000000000000e+00 0.000000000000000e+00)
"vinp" (1.000000000000000e+00 0.000000000000000e+00)
"vmid" (0.000000000000000e+00 0.000000000000000e+00)
"vout" (0.000000000000000e+00 0.000000000000000e+00)
"voutp" (-2.762852332095181e+00 1.465734042112530e-05)
"VDD:p" (2.762852332067403e-04 6.242593178892079e-11)
"VIN:p" (0.000000000000000e+00 0.000000000000000e+00)
"VINP:p" (-7.471593692917961e-16 -1.528159973882751e-09)
"freq" 5.011872336272711e+04
"vdd" (0.000000000000000e+00 0.000000000000000e+00)
"vin" (0.000000000000000e+00 0.000000000000000e+00)
"vinp" (1.000000000000000e+00 0.000000000000000e+00)
"vmid" (0.000000000000000e+00 0.000000000000000e+00)
"vout" (0.000000000000000e+00 0.000000000000000e+00)
"voutp" (-2.762852332080471e+00 1.644580644342466e-05)
"VDD:p" (2.762852332054628e-04 7.004304749973156e-11)
"VIN:p" (0.000000000000000e+00 0.000000000000000e+00)
"VINP:p" (-9.406179166579007e-16 -1.714623691821216e-09)
"freq" 5.623413251903476e+04
"vdd" (0.000000000000000e+00 0.000000000000000e+00)
"vin" (0.000000000000000e+00 0.000000000000000e+00)
