HEADER
"PSFversion" "1.00"
"simulator" "spectre"
"version" "25.1.0.235.isr5"
"date" "6:41:54 PM, Sat Jul 18, 2026"
"design" "// tb_ota2s (SKY130) -- closed-form-Cc phase-margin check, Cc=8.62p"
"analysis type" "ac"
"analysis name" "ac"
"analysis description" "AC Analysis `ac': freq = (1 mHz -> 10 GHz)"
"xVecSorted" "ascending"
"tolerance.relative" 1.000000000000000e-03
"start" 1.000000000000000e-03
"stop" 1.000000000000000e+10
"operating point producer" "ac"
TYPE
"sweep" FLOAT DOUBLE PROP(
"key" "sweep"
)
"V" COMPLEX DOUBLE PROP(
"units" "V"
"key" "node"
"tolerance" 1.000000000000000e-06
)
"I" COMPLEX DOUBLE PROP(
"units" "A"
"key" "branch"
"tolerance" 1.000000000000000e-12
)
"MMF" COMPLEX DOUBLE PROP(
"units" "A*turn"
"key" "node"
"tolerance" 1.000000000000000e-12
)
"Wb" COMPLEX DOUBLE PROP(
"units" "Wb"
"key" "node"
"tolerance" 1.000000000000000e-09
)
"Temp" COMPLEX DOUBLE PROP(
"units" "C"
"key" "node"
"tolerance" 1.000000000000000e-04
)
"Pwr" COMPLEX DOUBLE PROP(
"units" "W"
"key" "node"
"tolerance" 1.000000000000000e-09
)
"U" COMPLEX DOUBLE PROP(
"units" ""
"key" "node"
"tolerance" 1.000000000000000e-06
)
"V/Sec" COMPLEX DOUBLE PROP(
"units" "V/s"
"key" "node"
"tolerance" 9.999999999999999e-05
)
"I/Sec" COMPLEX DOUBLE PROP(
"units" "A/s"
"key" "node"
"tolerance" 1.000000000000000e-06
)
"1/Sec" COMPLEX DOUBLE PROP(
"units" "1/s"
"key" "node"
"tolerance" 9.999999999999999e-05
)
"HOD" COMPLEX DOUBLE PROP(
"units" ""
"key" "node"
"tolerance" 1.000000000000000e-02
)
"Q" COMPLEX DOUBLE PROP(
"units" "Coul"
"key" "node"
"tolerance" 1.000000000000000e-15
)
"Efield" COMPLEX DOUBLE PROP(
"units" "V/m"
"key" "node"
"tolerance" 1.000000000000000e-06
"sigtype" "optical"
)
SWEEP
"freq" "sweep" PROP(
"sweep_direction" 0
"units" "Hz"
"plot" 0
"grid" 3
)
TRACE
"vdd!" "V"
"vout" "V"
"vin_dm" "V"
"vin_cm" "V"
"vin_p" "V"
"net1" "V"
"vbn" "V"
"vin_n" "V"
"I0.tail" "V"
"I0.outd" "V"
"I0.mirr" "V"
"I0.net1" "V"
"VINC:p" "I"
"VIND:p" "I"
"VSUP:p" "I"
VALUE
"freq" 1.000000000000000e-03
"vdd!" (0.000000000000000e+00 0.000000000000000e+00)
"vout" (1.878492409248459e+04 -5.668953250941153e-02)
"vin_dm" (1.000000000000000e+00 0.000000000000000e+00)
"vin_cm" (0.000000000000000e+00 0.000000000000000e+00)
"vin_p" (5.000000000000000e-01 0.000000000000000e+00)
"net1" (-5.000000000000000e-01 0.000000000000000e+00)
"vbn" (1.719719545946360e-14 5.698523916171033e-09)
"vin_n" (-5.000000000000000e-01 -0.000000000000000e+00)
"I0.tail" (-3.559456012001335e-01 1.069903882972431e-06)
"I0.outd" (-1.765626468542704e+02 5.313023874436834e-04)
"I0.mirr" (8.847006759305805e-02 1.753592410279809e-06)
"I0.net1" (-1.765626468542704e+02 5.313023874436834e-04)
"VINC:p" (-4.154981329280885e-20 -1.376241453717741e-14)
"VIND:p" (-2.500000018216238e-12 -7.402341747039055e-15)
"VSUP:p" (-1.395846241925600e-01 4.206246298870022e-07)
"freq" 1.122018454301963e-03
"vdd!" (0.000000000000000e+00 0.000000000000000e+00)
"vout" (1.878492409244030e+04 -6.360670164116086e-02)
"vin_dm" (1.000000000000000e+00 0.000000000000000e+00)
"vin_cm" (0.000000000000000e+00 0.000000000000000e+00)
"vin_p" (5.000000000000000e-01 0.000000000000000e+00)
"net1" (-5.000000000000000e-01 0.000000000000000e+00)
"vbn" (2.164998637545895e-14 6.393848996209917e-09)
"vin_n" (-5.000000000000000e-01 -0.000000000000000e+00)
"I0.tail" (-3.559456011992977e-01 1.200451901021565e-06)
"I0.outd" (-1.765626468538553e+02 5.961310835250987e-04)
"I0.mirr" (8.847006759442805e-02 1.967563045653166e-06)
"I0.net1" (-1.765626468538553e+02 5.961310835250987e-04)
"VINC:p" (-5.230811585784107e-20 -1.544168308643024e-14)
"VIND:p" (-2.500000022932885e-12 -8.305564045211687e-15)
"VSUP:p" (-1.395846241922313e-01 4.719485970660366e-07)
"freq" 1.258925411794167e-03
"vdd!" (0.000000000000000e+00 0.000000000000000e+00)
"vout" (1.878492409238453e+04 -7.136789305844954e-02)
"vin_dm" (1.000000000000000e+00 0.000000000000000e+00)
"vin_cm" (0.000000000000000e+00 0.000000000000000e+00)
"vin_p" (5.000000000000000e-01 0.000000000000000e+00)
"net1" (-5.000000000000000e-01 0.000000000000000e+00)
"vbn" (2.725571801298182e-14 7.174016567746308e-09)
"vin_n" (-5.000000000000000e-01 -0.000000000000000e+00)
"I0.tail" (-3.559456011982450e-01 1.346929186444071e-06)
"I0.outd" (-1.765626468533326e+02 6.688700768962000e-04)
"I0.mirr" (8.847006759615345e-02 2.207642047218873e-06)
"I0.net1" (-1.765626468533326e+02 6.688700768962000e-04)
"VINC:p" (-6.585201628348587e-20 -1.732585338840577e-14)
"VIND:p" (-2.500000028870791e-12 -9.318996132091819e-15)
"VSUP:p" (-1.395846241918175e-01 5.295350353884423e-07)
"freq" 1.412537544622754e-03
"vdd!" (0.000000000000000e+00 0.000000000000000e+00)
"vout" (1.878492409231432e+04 -8.007609305593012e-02)
"vin_dm" (1.000000000000000e+00 0.000000000000000e+00)
"vin_cm" (0.000000000000000e+00 0.000000000000000e+00)
"vin_p" (5.000000000000000e-01 0.000000000000000e+00)
"net1" (-5.000000000000000e-01 0.000000000000000e+00)
"vbn" (3.431291602311061e-14 8.049378980449310e-09)
"vin_n" (-5.000000000000000e-01 -0.000000000000000e+00)
"I0.tail" (-3.559456011969200e-01 1.511279403822530e-06)
"I0.outd" (-1.765626468526747e+02 7.504845698051051e-04)
"I0.mirr" (8.847006759832504e-02 2.477015117463286e-06)
"I0.net1" (-1.765626468526747e+02 7.504845698051051e-04)
"VINC:p" (-8.290277668395309e-20 -1.943992723824879e-14)
"VIND:p" (-2.500000036346173e-12 -1.045608563574377e-14)
"VSUP:p" (-1.395846241912966e-01 5.941480819030553e-07)
"freq" 1.584893192461113e-03
"vdd!" (0.000000000000000e+00 0.000000000000000e+00)
"vout" (1.878492409222596e+04 -8.984685415673227e-02)
"vin_dm" (1.000000000000000e+00 0.000000000000000e+00)
"vin_cm" (0.000000000000000e+00 0.000000000000000e+00)
"vin_p" (5.000000000000000e-01 0.000000000000000e+00)
"net1" (-5.000000000000000e-01 0.000000000000000e+00)
"vbn" (4.319740193405000e-14 9.031551761691959e-09)
"vin_n" (-5.000000000000000e-01 -0.000000000000000e+00)
"I0.tail" (-3.559456011952521e-01 1.695683380687371e-06)
"I0.outd" (-1.765626468518464e+02 8.420575369862368e-04)
"I0.mirr" (8.847006760105884e-02 2.779256673365677e-06)
"I0.net1" (-1.765626468518464e+02 8.420575369862368e-04)
"VINC:p" (-1.043684122613755e-19 -2.181195711149988e-14)
"VIND:p" (-2.500000045757120e-12 -1.173192104302118e-14)
"VSUP:p" (-1.395846241906409e-01 6.666451124802063e-07)
"freq" 1.778279410038922e-03
"vdd!" (0.000000000000000e+00 0.000000000000000e+00)
"vout" (1.878492409211468e+04 -1.008098284242336e-01)
"vin_dm" (1.000000000000000e+00 0.000000000000000e+00)
"vin_cm" (0.000000000000000e+00 0.000000000000000e+00)
"vin_p" (5.000000000000000e-01 0.000000000000000e+00)
"net1" (-5.000000000000000e-01 0.000000000000000e+00)
"vbn" (5.438230701793994e-14 1.013356774754176e-08)
"vin_n" (-5.000000000000000e-01 -0.000000000000000e+00)
"I0.tail" (-3.559456011931522e-01 1.902588045773103e-06)
"I0.outd" (-1.765626468508036e+02 9.448040960770196e-04)
"I0.mirr" (8.847006760450064e-02 3.118377276739704e-06)
"I0.net1" (-1.765626468508036e+02 9.448040960770196e-04)
"VINC:p" (-1.313920465355457e-19 -2.447341840340081e-14)
"VIND:p" (-2.500000057604802e-12 -1.316343191461973e-14)
"VSUP:p" (-1.395846241898154e-01 7.479881186685691e-07)
"freq" 1.995262314968878e-03
"vdd!" (0.000000000000000e+00 0.000000000000000e+00)
"vout" (1.878492409197462e+04 -1.131104878661613e-01)
"vin_dm" (1.000000000000000e+00 0.000000000000000e+00)
"vin_cm" (0.000000000000000e+00 0.000000000000000e+00)
"vin_p" (5.000000000000000e-01 0.000000000000000e+00)
"net1" (-5.000000000000000e-01 0.000000000000000e+00)
"vbn" (6.846326825636632e-14 1.137005002057625e-08)
"vin_n" (-5.000000000000000e-01 -0.000000000000000e+00)
"I0.tail" (-3.559456011905086e-01 2.134738898275812e-06)
"I0.outd" (-1.765626468494908e+02 1.060087631490597e-03)
"I0.mirr" (8.847006760883361e-02 3.498876851951758e-06)
"I0.net1" (-1.765626468494908e+02 1.060087631490597e-03)
"VINC:p" (-1.654127862632242e-19 -2.745962708826414e-14)
"VIND:p" (-2.500000072520149e-12 -1.476961353006094e-14)
"VSUP:p" (-1.395846241887760e-01 8.392564727384837e-07)
"freq" 2.238721138568338e-03
"vdd!" (0.000000000000000e+00 0.000000000000000e+00)
"vout" (1.878492409179826e+04 -1.269120547597398e-01)
"vin_dm" (1.000000000000000e+00 0.000000000000000e+00)
"vin_cm" (0.000000000000000e+00 0.000000000000000e+00)
"vin_p" (5.000000000000000e-01 0.000000000000000e+00)
"net1" (-5.000000000000000e-01 0.000000000000000e+00)
"vbn" (8.619014818161140e-14 1.275740594930321e-08)
"vin_n" (-5.000000000000000e-01 -0.000000000000000e+00)
"I0.tail" (-3.559456011871805e-01 2.395216438959217e-06)
"I0.outd" (-1.765626468478381e+02 1.189437885698543e-03)
"I0.mirr" (8.847006761428867e-02 3.925804397182977e-06)
"I0.net1" (-1.765626468478381e+02 1.189437885698543e-03)
"VINC:p" (-2.082423600450100e-19 -3.081020834099310e-14)
"VIND:p" (-2.500000091297458e-12 -1.657177894350949e-14)
"VSUP:p" (-1.395846241874675e-01 9.416612502961117e-07)
"freq" 2.511886431509578e-03
"vdd!" (0.000000000000000e+00 0.000000000000000e+00)
"vout" (1.878492409157627e+04 -1.423976675121267e-01)
"vin_dm" (1.000000000000000e+00 0.000000000000000e+00)
"vin_cm" (0.000000000000000e+00 0.000000000000000e+00)
"vin_p" (5.000000000000000e-01 0.000000000000000e+00)
"net1" (-5.000000000000000e-01 0.000000000000000e+00)
"vbn" (1.085069677908532e-13 1.431404490397070e-08)
"vin_n" (-5.000000000000000e-01 -0.000000000000000e+00)
"I0.tail" (-3.559456011829908e-01 2.687477046527915e-06)
"I0.outd" (-1.765626468457575e+02 1.334571257983903e-03)
"I0.mirr" (8.847006762115572e-02 4.404824981567042e-06)
"I0.net1" (-1.765626468457575e+02 1.334571257983903e-03)
"VINC:p" (-2.621615988665702e-19 -3.456962233907383e-14)
"VIND:p" (-2.500000114936690e-12 -1.859384179505115e-14)
"VSUP:p" (-1.395846241858203e-01 1.056561300520812e-06)
"freq" 2.818382931264451e-03
"vdd!" (0.000000000000000e+00 0.000000000000000e+00)
"vout" (1.878492409129679e+04 -1.597728107957843e-01)
"vin_dm" (1.000000000000000e+00 0.000000000000000e+00)
"vin_cm" (0.000000000000000e+00 0.000000000000000e+00)
"vin_p" (5.000000000000000e-01 0.000000000000000e+00)
"net1" (-5.000000000000000e-01 0.000000000000000e+00)
"vbn" (1.366021791066039e-13 1.606062253772314e-08)
"vin_n" (-5.000000000000000e-01 -0.000000000000000e+00)
"I0.tail" (-3.559456011777161e-01 3.015398841672395e-06)
"I0.outd" (-1.765626468431381e+02 1.497413580016648e-03)
"I0.mirr" (8.847006762980124e-02 4.942294917214996e-06)
"I0.net1" (-1.765626468431381e+02 1.497413580016648e-03)
"VINC:p" (-3.300418987666434e-19 -3.878775422211292e-14)
"VIND:p" (-2.500000144696720e-12 -2.086263363016543e-14)
"VSUP:p" (-1.395846241837467e-01 1.185481277267996e-06)
"freq" 3.162277660168376e-03
"vdd!" (0.000000000000000e+00 0.000000000000000e+00)
"vout" (1.878492409094494e+04 -1.792680422052083e-01)
"vin_dm" (1.000000000000000e+00 0.000000000000000e+00)
"vin_cm" (0.000000000000000e+00 0.000000000000000e+00)
"vin_p" (5.000000000000000e-01 0.000000000000000e+00)
"net1" (-5.000000000000000e-01 0.000000000000000e+00)
"vbn" (1.719719545805409e-13 1.802031487456587e-08)
"vin_n" (-5.000000000000000e-01 -0.000000000000000e+00)
"I0.tail" (-3.559456011710755e-01 3.383333147373823e-06)
"I0.outd" (-1.765626468398406e+02 1.680125670469581e-03)
"I0.mirr" (8.847006764068528e-02 5.545346103614156e-06)
"I0.net1" (-1.765626468398406e+02 1.680125670469581e-03)
"VINC:p" (-4.154981332310111e-19 -4.352057603732409e-14)
"VIND:p" (-2.500000182162378e-12 -2.340825993802884e-14)
"VSUP:p" (-1.395846241811360e-01 1.330131870299241e-06)
"freq" 3.548133892335751e-03
"vdd!" (0.000000000000000e+00 0.000000000000000e+00)
"vout" (1.878492409050199e+04 -2.011420516160842e-01)
"vin_dm" (1.000000000000000e+00 0.000000000000000e+00)
"vin_cm" (0.000000000000000e+00 0.000000000000000e+00)
"vin_p" (5.000000000000000e-01 0.000000000000000e+00)
"net1" (-5.000000000000000e-01 0.000000000000000e+00)
"vbn" (2.164998637322504e-13 2.021912584111831e-08)
"vin_n" (-5.000000000000000e-01 -0.000000000000000e+00)
"I0.tail" (-3.559456011627158e-01 3.796162228315464e-06)
"I0.outd" (-1.765626468356892e+02 1.885132007768879e-03)
"I0.mirr" (8.847006765438718e-02 6.221980663599860e-06)
"I0.net1" (-1.765626468356892e+02 1.885132007768879e-03)
"VINC:p" (-5.230811584774365e-19 -4.883088945457753e-14)
"VIND:p" (-2.500000229328847e-12 -2.626449963306067e-14)
"VSUP:p" (-1.395846241778494e-01 1.492432505095744e-06)
"freq" 3.981071705534968e-03
"vdd!" (0.000000000000000e+00 0.000000000000000e+00)
"vout" (1.878492408994435e+04 -2.256850938427052e-01)
"vin_dm" (1.000000000000000e+00 0.000000000000000e+00)
"vin_cm" (0.000000000000000e+00 0.000000000000000e+00)
"vin_p" (5.000000000000000e-01 0.000000000000000e+00)
"net1" (-5.000000000000000e-01 0.000000000000000e+00)
"vbn" (2.725571800944139e-13 2.268623232291499e-08)
"vin_n" (-5.000000000000000e-01 -0.000000000000000e+00)
"I0.tail" (-3.559456011521915e-01 4.259364075567576e-06)
"I0.outd" (-1.765626468304629e+02 2.115152901449208e-03)
"I0.mirr" (8.847006767163701e-02 6.981177126661782e-06)
"I0.net1" (-1.765626468304629e+02 2.115152901449208e-03)
"VINC:p" (-6.585201629358329e-19 -5.478915910638800e-14)
"VIND:p" (-2.500000288707912e-12 -2.946925328058785e-14)
"VSUP:p" (-1.395846241737118e-01 1.674536812467826e-06)
"freq" 4.466835921509626e-03
"vdd!" (0.000000000000000e+00 0.000000000000000e+00)
"vout" (1.878492408924232e+04 -2.532228401429225e-01)
"vin_dm" (1.000000000000000e+00 0.000000000000000e+00)
"vin_cm" (0.000000000000000e+00 0.000000000000000e+00)
"vin_p" (5.000000000000000e-01 0.000000000000000e+00)
"net1" (-5.000000000000000e-01 0.000000000000000e+00)
"vbn" (3.431291601749937e-13 2.545437132394103e-08)
"vin_n" (-5.000000000000000e-01 -0.000000000000000e+00)
"I0.tail" (-3.559456011389419e-01 4.779085096199047e-06)
"I0.outd" (-1.765626468238834e+02 2.373240589007663e-03)
"I0.mirr" (8.847006769335371e-02 7.833009568572549e-06)
"I0.net1" (-1.765626468238834e+02 2.373240589007663e-03)
"VINC:p" (-8.290277671424535e-19 -6.147444761075541e-14)
"VIND:p" (-2.500000363461728e-12 -3.306504601431060e-14)
"VSUP:p" (-1.395846241685029e-01 1.878861205926673e-06)
"freq" 5.011872336272717e-03
"vdd!" (0.000000000000000e+00 0.000000000000000e+00)
"vout" (1.878492408835852e+04 -2.841206996777482e-01)
"vin_dm" (1.000000000000000e+00 0.000000000000000e+00)
"vin_cm" (0.000000000000000e+00 0.000000000000000e+00)
"vin_p" (5.000000000000000e-01 0.000000000000000e+00)
"net1" (-5.000000000000000e-01 0.000000000000000e+00)
"vbn" (4.319740192515678e-13 2.856027436677281e-08)
"vin_n" (-5.000000000000000e-01 -0.000000000000000e+00)
"I0.tail" (-3.559456011222619e-01 5.362221672362532e-06)
"I0.outd" (-1.765626468156003e+02 2.662819737239783e-03)
"I0.mirr" (8.847006772069278e-02 8.788781288248776e-06)
"I0.net1" (-1.765626468156003e+02 2.662819737239783e-03)
"VINC:p" (-1.043684123219601e-18 -6.897546468404027e-14)
"VIND:p" (-2.500000457571205e-12 -3.709959181897672e-14)
"VSUP:p" (-1.395846241619453e-01 2.108116946022590e-06)
"freq" 5.623413251903483e-03
"vdd!" (0.000000000000000e+00 0.000000000000000e+00)
"vout" (1.878492408724587e+04 -3.187886682687378e-01)
"vin_dm" (1.000000000000000e+00 0.000000000000000e+00)
"vin_cm" (0.000000000000000e+00 0.000000000000000e+00)
"vin_p" (5.000000000000000e-01 0.000000000000000e+00)
"net1" (-5.000000000000000e-01 0.000000000000000e+00)
"vbn" (5.438230700384512e-13 3.204515489754835e-08)
"vin_n" (-5.000000000000000e-01 -0.000000000000000e+00)
"I0.tail" (-3.559456011012629e-01 6.016511672092343e-06)
"I0.outd" (-1.765626468051724e+02 2.987732885485581e-03)
"I0.mirr" (8.847006775511083e-02 9.861174795654831e-06)
"I0.net1" (-1.765626468051724e+02 2.987732885485581e-03)
"VINC:p" (-1.313920464547664e-18 -7.739174426496063e-14)
"VIND:p" (-2.500000576048017e-12 -4.162642666595147e-14)
"VSUP:p" (-1.395846241536897e-01 2.365346117123944e-06)
"freq" 6.309573444801923e-03
"vdd!" (0.000000000000000e+00 0.000000000000000e+00)
"vout" (1.878492408584514e+04 -3.576867687932002e-01)
"vin_dm" (1.000000000000000e+00 0.000000000000000e+00)
"vin_cm" (0.000000000000000e+00 0.000000000000000e+00)
"vin_p" (5.000000000000000e-01 0.000000000000000e+00)
"net1" (-5.000000000000000e-01 0.000000000000000e+00)
"vbn" (6.846326823402767e-13 3.595525516333312e-08)
"vin_n" (-5.000000000000000e-01 -0.000000000000000e+00)
"I0.tail" (-3.559456010748270e-01 6.750637126107419e-06)
"I0.outd" (-1.765626467920445e+02 3.352291433789718e-03)
"I0.mirr" (8.847006779844065e-02 1.106442010099710e-05)
"I0.net1" (-1.765626467920445e+02 3.352291433789718e-03)
"VINC:p" (-1.654127861824449e-18 -8.683496526942627e-14)
"VIND:p" (-2.500000725201488e-12 -4.670561890300497e-14)
"VSUP:p" (-1.395846241432966e-01 2.653961994026670e-06)
"freq" 7.079457843841368e-03
"vdd!" (0.000000000000000e+00 0.000000000000000e+00)
"vout" (1.878492408408172e+04 -4.013311554079367e-01)
"vin_dm" (1.000000000000000e+00 0.000000000000000e+00)
"vin_cm" (0.000000000000000e+00 0.000000000000000e+00)
"vin_p" (5.000000000000000e-01 0.000000000000000e+00)
"net1" (-5.000000000000000e-01 0.000000000000000e+00)
"vbn" (8.619014814620702e-13 4.034245981860857e-08)
"vin_n" (-5.000000000000000e-01 -0.000000000000000e+00)
"I0.tail" (-3.559456010415459e-01 7.574339433077485e-06)
"I0.outd" (-1.765626467755175e+02 3.761332852557372e-03)
"I0.mirr" (8.847006785298978e-02 1.241448353830296e-05)
"I0.net1" (-1.765626467755175e+02 3.761332852557372e-03)
"VINC:p" (-2.082423599339384e-18 -9.743043350181634e-14)
"VIND:p" (-2.500000912974582e-12 -5.240456632475465e-14)
"VSUP:p" (-1.395846241302124e-01 2.977794334034432e-06)
"freq" 7.943282347242802e-03
"vdd!" (0.000000000000000e+00 0.000000000000000e+00)
"vout" (1.878492408186171e+04 -4.503009626008194e-01)
"vin_dm" (1.000000000000000e+00 0.000000000000000e+00)
"vin_cm" (0.000000000000000e+00 0.000000000000000e+00)
"vin_p" (5.000000000000000e-01 0.000000000000000e+00)
"net1" (-5.000000000000000e-01 0.000000000000000e+00)
"vbn" (1.085069677347410e-12 4.526498440306480e-08)
"vin_n" (-5.000000000000000e-01 -0.000000000000000e+00)
"I0.tail" (-3.559456009996474e-01 8.498548622055682e-06)
"I0.outd" (-1.765626467547113e+02 4.220284872842880e-03)
"I0.mirr" (8.847006792166293e-02 1.392927962895772e-05)
"I0.net1" (-1.765626467547113e+02 4.220284872842880e-03)
"VINC:p" (-2.621615987050115e-18 -1.093187443867535e-13)
"VIND:p" (-2.500001149366901e-12 -5.879889050039949e-14)
"VSUP:p" (-1.395846241137404e-01 3.341140195507614e-06)
"freq" 8.912509381337440e-03
"vdd!" (0.000000000000000e+00 0.000000000000000e+00)
"vout" (1.878492407906688e+04 -5.052459899528896e-01)
"vin_dm" (1.000000000000000e+00 0.000000000000000e+00)
"vin_cm" (0.000000000000000e+00 0.000000000000000e+00)
"vin_p" (5.000000000000000e-01 0.000000000000000e+00)
"net1" (-5.000000000000000e-01 0.000000000000000e+00)
"vbn" (1.366021790176722e-12 5.078814782637294e-08)
"vin_n" (-5.000000000000000e-01 -0.000000000000000e+00)
"I0.tail" (-3.559456009469006e-01 9.535528387310349e-06)
"I0.outd" (-1.765626467285178e+02 4.735237509036641e-03)
"I0.mirr" (8.847006800811713e-02 1.562890879649776e-05)
"I0.net1" (-1.765626467285178e+02 4.735237509036641e-03)
"VINC:p" (-3.300418985545976e-18 -1.226576485847999e-13)
"VIND:p" (-2.500001446967198e-12 -6.597344022592457e-14)
"VSUP:p" (-1.395846240930034e-01 3.748820957211882e-06)
"freq" 9.999999999999981e-03
"vdd!" (0.000000000000000e+00 0.000000000000000e+00)
"vout" (1.878492407554841e+04 -5.668953245830289e-01)
"vin_dm" (1.000000000000000e+00 0.000000000000000e+00)
"vin_cm" (0.000000000000000e+00 0.000000000000000e+00)
"vin_p" (5.000000000000000e-01 0.000000000000000e+00)
"net1" (-5.000000000000000e-01 0.000000000000000e+00)
"vbn" (1.719719544395938e-12 5.698523911033301e-08)
"vin_n" (-5.000000000000000e-01 -0.000000000000000e+00)
"I0.tail" (-3.559456008804961e-01 1.069903882007856e-05)
"I0.outd" (-1.765626466955420e+02 5.313023869646860e-03)
"I0.mirr" (8.847006811695672e-02 1.753592408698830e-05)
"I0.net1" (-1.765626466955420e+02 5.313023869646860e-03)
"VINC:p" (-4.154981329684782e-18 -1.376241452476423e-13)
"VIND:p" (-2.500001821623776e-12 -7.402341741596878e-14)
