HEADER
"PSFversion" "1.00"
"simulator" "spectre"
"version" "25.1.0.235.isr5"
"date" "7:23:48 PM, Fri Jul 17, 2026"
"design" "// Point Netlist Generated on: Jul 17 08:44:01 2026"
"analysis type" "ac"
"analysis name" "ac"
"analysis description" "AC Analysis `ac': freq = (1 mHz -> 10 GHz)"
"xVecSorted" "ascending"
"tolerance.relative" 1.000000000000000e-03
"start" 1.000000000000000e-03
"stop" 1.000000000000000e+10
"operating point producer" "ac"
TYPE
"sweep" FLOAT DOUBLE PROP(
"key" "sweep"
)
"V" COMPLEX DOUBLE PROP(
"units" "V"
"key" "node"
"tolerance" 1.000000000000000e-06
)
"I" COMPLEX DOUBLE PROP(
"units" "A"
"key" "branch"
"tolerance" 1.000000000000000e-12
)
"MMF" COMPLEX DOUBLE PROP(
"units" "A*turn"
"key" "node"
"tolerance" 1.000000000000000e-12
)
"Wb" COMPLEX DOUBLE PROP(
"units" "Wb"
"key" "node"
"tolerance" 1.000000000000000e-09
)
"Temp" COMPLEX DOUBLE PROP(
"units" "C"
"key" "node"
"tolerance" 1.000000000000000e-04
)
"Pwr" COMPLEX DOUBLE PROP(
"units" "W"
"key" "node"
"tolerance" 1.000000000000000e-09
)
"U" COMPLEX DOUBLE PROP(
"units" ""
"key" "node"
"tolerance" 1.000000000000000e-06
)
"V/Sec" COMPLEX DOUBLE PROP(
"units" "V/s"
"key" "node"
"tolerance" 9.999999999999999e-05
)
"I/Sec" COMPLEX DOUBLE PROP(
"units" "A/s"
"key" "node"
"tolerance" 1.000000000000000e-06
)
"1/Sec" COMPLEX DOUBLE PROP(
"units" "1/s"
"key" "node"
"tolerance" 9.999999999999999e-05
)
"HOD" COMPLEX DOUBLE PROP(
"units" ""
"key" "node"
"tolerance" 1.000000000000000e-02
)
"Q" COMPLEX DOUBLE PROP(
"units" "Coul"
"key" "node"
"tolerance" 1.000000000000000e-15
)
"Efield" COMPLEX DOUBLE PROP(
"units" "V/m"
"key" "node"
"tolerance" 1.000000000000000e-06
"sigtype" "optical"
)
SWEEP
"freq" "sweep" PROP(
"sweep_direction" 0
"units" "Hz"
"plot" 0
"grid" 3
)
TRACE
"vdd!" "V"
"out" "V"
"n4" "V"
"n3" "V"
"in" "V"
"n2" "V"
"n1" "V"
"VIN:p" "I"
"VPORT1:p" "I"
"VPORT2:p" "I"
"VSUP:p" "I"
VALUE
"freq" 1.000000000000000e-03
"vdd!" (0.000000000000000e+00 0.000000000000000e+00)
"out" (0.000000000000000e+00 0.000000000000000e+00)
"n4" (0.000000000000000e+00 0.000000000000000e+00)
"n3" (0.000000000000000e+00 -0.000000000000000e+00)
"in" (0.000000000000000e+00 0.000000000000000e+00)
"n2" (0.000000000000000e+00 0.000000000000000e+00)
"n1" (0.000000000000000e+00 0.000000000000000e+00)
"VIN:p" (0.000000000000000e+00 0.000000000000000e+00)
"VPORT1:p" (0.000000000000000e+00 -0.000000000000000e+00)
"VPORT2:p" (0.000000000000000e+00 -0.000000000000000e+00)
"VSUP:p" (0.000000000000000e+00 0.000000000000000e+00)
"freq" 1.122018454301963e-03
"vdd!" (0.000000000000000e+00 0.000000000000000e+00)
"out" (0.000000000000000e+00 0.000000000000000e+00)
"n4" (0.000000000000000e+00 0.000000000000000e+00)
"n3" (0.000000000000000e+00 -0.000000000000000e+00)
"in" (0.000000000000000e+00 0.000000000000000e+00)
"n2" (0.000000000000000e+00 0.000000000000000e+00)
"n1" (0.000000000000000e+00 0.000000000000000e+00)
"VIN:p" (0.000000000000000e+00 0.000000000000000e+00)
"VPORT1:p" (0.000000000000000e+00 -0.000000000000000e+00)
"VPORT2:p" (0.000000000000000e+00 -0.000000000000000e+00)
"VSUP:p" (0.000000000000000e+00 0.000000000000000e+00)
"freq" 1.258925411794167e-03
"vdd!" (0.000000000000000e+00 0.000000000000000e+00)
"out" (0.000000000000000e+00 0.000000000000000e+00)
"n4" (0.000000000000000e+00 0.000000000000000e+00)
"n3" (0.000000000000000e+00 -0.000000000000000e+00)
"in" (0.000000000000000e+00 0.000000000000000e+00)
"n2" (0.000000000000000e+00 0.000000000000000e+00)
"n1" (0.000000000000000e+00 0.000000000000000e+00)
"VIN:p" (0.000000000000000e+00 0.000000000000000e+00)
"VPORT1:p" (0.000000000000000e+00 -0.000000000000000e+00)
"VPORT2:p" (0.000000000000000e+00 -0.000000000000000e+00)
"VSUP:p" (0.000000000000000e+00 0.000000000000000e+00)
"freq" 1.412537544622754e-03
"vdd!" (0.000000000000000e+00 0.000000000000000e+00)
"out" (0.000000000000000e+00 0.000000000000000e+00)
"n4" (0.000000000000000e+00 0.000000000000000e+00)
"n3" (0.000000000000000e+00 -0.000000000000000e+00)
"in" (0.000000000000000e+00 0.000000000000000e+00)
"n2" (0.000000000000000e+00 0.000000000000000e+00)
"n1" (0.000000000000000e+00 0.000000000000000e+00)
"VIN:p" (0.000000000000000e+00 0.000000000000000e+00)
"VPORT1:p" (0.000000000000000e+00 -0.000000000000000e+00)
"VPORT2:p" (0.000000000000000e+00 -0.000000000000000e+00)
"VSUP:p" (0.000000000000000e+00 0.000000000000000e+00)
"freq" 1.584893192461113e-03
"vdd!" (0.000000000000000e+00 0.000000000000000e+00)
"out" (0.000000000000000e+00 0.000000000000000e+00)
"n4" (0.000000000000000e+00 0.000000000000000e+00)
"n3" (0.000000000000000e+00 -0.000000000000000e+00)
"in" (0.000000000000000e+00 0.000000000000000e+00)
"n2" (0.000000000000000e+00 0.000000000000000e+00)
"n1" (0.000000000000000e+00 0.000000000000000e+00)
"VIN:p" (0.000000000000000e+00 0.000000000000000e+00)
"VPORT1:p" (0.000000000000000e+00 -0.000000000000000e+00)
"VPORT2:p" (0.000000000000000e+00 -0.000000000000000e+00)
"VSUP:p" (0.000000000000000e+00 0.000000000000000e+00)
"freq" 1.778279410038922e-03
"vdd!" (0.000000000000000e+00 0.000000000000000e+00)
"out" (0.000000000000000e+00 0.000000000000000e+00)
"n4" (0.000000000000000e+00 0.000000000000000e+00)
"n3" (0.000000000000000e+00 -0.000000000000000e+00)
"in" (0.000000000000000e+00 0.000000000000000e+00)
"n2" (0.000000000000000e+00 0.000000000000000e+00)
"n1" (0.000000000000000e+00 0.000000000000000e+00)
"VIN:p" (0.000000000000000e+00 0.000000000000000e+00)
"VPORT1:p" (0.000000000000000e+00 -0.000000000000000e+00)
"VPORT2:p" (0.000000000000000e+00 -0.000000000000000e+00)
"VSUP:p" (0.000000000000000e+00 0.000000000000000e+00)
"freq" 1.995262314968878e-03
"vdd!" (0.000000000000000e+00 0.000000000000000e+00)
"out" (0.000000000000000e+00 0.000000000000000e+00)
"n4" (0.000000000000000e+00 0.000000000000000e+00)
"n3" (0.000000000000000e+00 -0.000000000000000e+00)
"in" (0.000000000000000e+00 0.000000000000000e+00)
"n2" (0.000000000000000e+00 0.000000000000000e+00)
"n1" (0.000000000000000e+00 0.000000000000000e+00)
"VIN:p" (0.000000000000000e+00 0.000000000000000e+00)
"VPORT1:p" (0.000000000000000e+00 -0.000000000000000e+00)
"VPORT2:p" (0.000000000000000e+00 -0.000000000000000e+00)
"VSUP:p" (0.000000000000000e+00 0.000000000000000e+00)
"freq" 2.238721138568338e-03
"vdd!" (0.000000000000000e+00 0.000000000000000e+00)
"out" (0.000000000000000e+00 0.000000000000000e+00)
"n4" (0.000000000000000e+00 0.000000000000000e+00)
"n3" (0.000000000000000e+00 -0.000000000000000e+00)
"in" (0.000000000000000e+00 0.000000000000000e+00)
"n2" (0.000000000000000e+00 0.000000000000000e+00)
"n1" (0.000000000000000e+00 0.000000000000000e+00)
"VIN:p" (0.000000000000000e+00 0.000000000000000e+00)
"VPORT1:p" (0.000000000000000e+00 -0.000000000000000e+00)
"VPORT2:p" (0.000000000000000e+00 -0.000000000000000e+00)
"VSUP:p" (0.000000000000000e+00 0.000000000000000e+00)
"freq" 2.511886431509578e-03
"vdd!" (0.000000000000000e+00 0.000000000000000e+00)
"out" (0.000000000000000e+00 0.000000000000000e+00)
"n4" (0.000000000000000e+00 0.000000000000000e+00)
"n3" (0.000000000000000e+00 -0.000000000000000e+00)
"in" (0.000000000000000e+00 0.000000000000000e+00)
"n2" (0.000000000000000e+00 0.000000000000000e+00)
"n1" (0.000000000000000e+00 0.000000000000000e+00)
"VIN:p" (0.000000000000000e+00 0.000000000000000e+00)
"VPORT1:p" (0.000000000000000e+00 -0.000000000000000e+00)
"VPORT2:p" (0.000000000000000e+00 -0.000000000000000e+00)
"VSUP:p" (0.000000000000000e+00 0.000000000000000e+00)
"freq" 2.818382931264451e-03
"vdd!" (0.000000000000000e+00 0.000000000000000e+00)
"out" (0.000000000000000e+00 0.000000000000000e+00)
"n4" (0.000000000000000e+00 0.000000000000000e+00)
"n3" (0.000000000000000e+00 -0.000000000000000e+00)
"in" (0.000000000000000e+00 0.000000000000000e+00)
"n2" (0.000000000000000e+00 0.000000000000000e+00)
"n1" (0.000000000000000e+00 0.000000000000000e+00)
"VIN:p" (0.000000000000000e+00 0.000000000000000e+00)
"VPORT1:p" (0.000000000000000e+00 -0.000000000000000e+00)
"VPORT2:p" (0.000000000000000e+00 -0.000000000000000e+00)
"VSUP:p" (0.000000000000000e+00 0.000000000000000e+00)
"freq" 3.162277660168376e-03
"vdd!" (0.000000000000000e+00 0.000000000000000e+00)
"out" (0.000000000000000e+00 0.000000000000000e+00)
"n4" (0.000000000000000e+00 0.000000000000000e+00)
"n3" (0.000000000000000e+00 -0.000000000000000e+00)
"in" (0.000000000000000e+00 0.000000000000000e+00)
"n2" (0.000000000000000e+00 0.000000000000000e+00)
"n1" (0.000000000000000e+00 0.000000000000000e+00)
"VIN:p" (0.000000000000000e+00 0.000000000000000e+00)
"VPORT1:p" (0.000000000000000e+00 -0.000000000000000e+00)
"VPORT2:p" (0.000000000000000e+00 -0.000000000000000e+00)
"VSUP:p" (0.000000000000000e+00 0.000000000000000e+00)
"freq" 3.548133892335751e-03
"vdd!" (0.000000000000000e+00 0.000000000000000e+00)
"out" (0.000000000000000e+00 0.000000000000000e+00)
"n4" (0.000000000000000e+00 0.000000000000000e+00)
"n3" (0.000000000000000e+00 -0.000000000000000e+00)
"in" (0.000000000000000e+00 0.000000000000000e+00)
"n2" (0.000000000000000e+00 0.000000000000000e+00)
"n1" (0.000000000000000e+00 0.000000000000000e+00)
"VIN:p" (0.000000000000000e+00 0.000000000000000e+00)
"VPORT1:p" (0.000000000000000e+00 -0.000000000000000e+00)
"VPORT2:p" (0.000000000000000e+00 -0.000000000000000e+00)
"VSUP:p" (0.000000000000000e+00 0.000000000000000e+00)
"freq" 3.981071705534968e-03
"vdd!" (0.000000000000000e+00 0.000000000000000e+00)
"out" (0.000000000000000e+00 0.000000000000000e+00)
"n4" (0.000000000000000e+00 0.000000000000000e+00)
"n3" (0.000000000000000e+00 -0.000000000000000e+00)
"in" (0.000000000000000e+00 0.000000000000000e+00)
"n2" (0.000000000000000e+00 0.000000000000000e+00)
"n1" (0.000000000000000e+00 0.000000000000000e+00)
"VIN:p" (0.000000000000000e+00 0.000000000000000e+00)
"VPORT1:p" (0.000000000000000e+00 -0.000000000000000e+00)
"VPORT2:p" (0.000000000000000e+00 -0.000000000000000e+00)
"VSUP:p" (0.000000000000000e+00 0.000000000000000e+00)
"freq" 4.466835921509626e-03
"vdd!" (0.000000000000000e+00 0.000000000000000e+00)
"out" (0.000000000000000e+00 0.000000000000000e+00)
"n4" (0.000000000000000e+00 0.000000000000000e+00)
"n3" (0.000000000000000e+00 -0.000000000000000e+00)
"in" (0.000000000000000e+00 0.000000000000000e+00)
"n2" (0.000000000000000e+00 0.000000000000000e+00)
"n1" (0.000000000000000e+00 0.000000000000000e+00)
"VIN:p" (0.000000000000000e+00 0.000000000000000e+00)
"VPORT1:p" (0.000000000000000e+00 -0.000000000000000e+00)
"VPORT2:p" (0.000000000000000e+00 -0.000000000000000e+00)
"VSUP:p" (0.000000000000000e+00 0.000000000000000e+00)
"freq" 5.011872336272717e-03
"vdd!" (0.000000000000000e+00 0.000000000000000e+00)
"out" (0.000000000000000e+00 0.000000000000000e+00)
"n4" (0.000000000000000e+00 0.000000000000000e+00)
"n3" (0.000000000000000e+00 -0.000000000000000e+00)
"in" (0.000000000000000e+00 0.000000000000000e+00)
"n2" (0.000000000000000e+00 0.000000000000000e+00)
"n1" (0.000000000000000e+00 0.000000000000000e+00)
"VIN:p" (0.000000000000000e+00 0.000000000000000e+00)
"VPORT1:p" (0.000000000000000e+00 -0.000000000000000e+00)
"VPORT2:p" (0.000000000000000e+00 -0.000000000000000e+00)
"VSUP:p" (0.000000000000000e+00 0.000000000000000e+00)
"freq" 5.623413251903483e-03
"vdd!" (0.000000000000000e+00 0.000000000000000e+00)
"out" (0.000000000000000e+00 0.000000000000000e+00)
"n4" (0.000000000000000e+00 0.000000000000000e+00)
"n3" (0.000000000000000e+00 -0.000000000000000e+00)
"in" (0.000000000000000e+00 0.000000000000000e+00)
"n2" (0.000000000000000e+00 0.000000000000000e+00)
"n1" (0.000000000000000e+00 0.000000000000000e+00)
"VIN:p" (0.000000000000000e+00 0.000000000000000e+00)
"VPORT1:p" (0.000000000000000e+00 -0.000000000000000e+00)
"VPORT2:p" (0.000000000000000e+00 -0.000000000000000e+00)
"VSUP:p" (0.000000000000000e+00 0.000000000000000e+00)
"freq" 6.309573444801923e-03
"vdd!" (0.000000000000000e+00 0.000000000000000e+00)
"out" (0.000000000000000e+00 0.000000000000000e+00)
"n4" (0.000000000000000e+00 0.000000000000000e+00)
"n3" (0.000000000000000e+00 -0.000000000000000e+00)
"in" (0.000000000000000e+00 0.000000000000000e+00)
"n2" (0.000000000000000e+00 0.000000000000000e+00)
"n1" (0.000000000000000e+00 0.000000000000000e+00)
"VIN:p" (0.000000000000000e+00 0.000000000000000e+00)
"VPORT1:p" (0.000000000000000e+00 -0.000000000000000e+00)
"VPORT2:p" (0.000000000000000e+00 -0.000000000000000e+00)
"VSUP:p" (0.000000000000000e+00 0.000000000000000e+00)
"freq" 7.079457843841368e-03
"vdd!" (0.000000000000000e+00 0.000000000000000e+00)
"out" (0.000000000000000e+00 0.000000000000000e+00)
"n4" (0.000000000000000e+00 0.000000000000000e+00)
"n3" (0.000000000000000e+00 -0.000000000000000e+00)
"in" (0.000000000000000e+00 0.000000000000000e+00)
"n2" (0.000000000000000e+00 0.000000000000000e+00)
"n1" (0.000000000000000e+00 0.000000000000000e+00)
"VIN:p" (0.000000000000000e+00 0.000000000000000e+00)
"VPORT1:p" (0.000000000000000e+00 -0.000000000000000e+00)
"VPORT2:p" (0.000000000000000e+00 -0.000000000000000e+00)
"VSUP:p" (0.000000000000000e+00 0.000000000000000e+00)
"freq" 7.943282347242802e-03
"vdd!" (0.000000000000000e+00 0.000000000000000e+00)
"out" (0.000000000000000e+00 0.000000000000000e+00)
"n4" (0.000000000000000e+00 0.000000000000000e+00)
"n3" (0.000000000000000e+00 -0.000000000000000e+00)
"in" (0.000000000000000e+00 0.000000000000000e+00)
"n2" (0.000000000000000e+00 0.000000000000000e+00)
"n1" (0.000000000000000e+00 0.000000000000000e+00)
"VIN:p" (0.000000000000000e+00 0.000000000000000e+00)
"VPORT1:p" (0.000000000000000e+00 -0.000000000000000e+00)
"VPORT2:p" (0.000000000000000e+00 -0.000000000000000e+00)
"VSUP:p" (0.000000000000000e+00 0.000000000000000e+00)
"freq" 8.912509381337440e-03
"vdd!" (0.000000000000000e+00 0.000000000000000e+00)
"out" (0.000000000000000e+00 0.000000000000000e+00)
"n4" (0.000000000000000e+00 0.000000000000000e+00)
"n3" (0.000000000000000e+00 -0.000000000000000e+00)
"in" (0.000000000000000e+00 0.000000000000000e+00)
"n2" (0.000000000000000e+00 0.000000000000000e+00)
"n1" (0.000000000000000e+00 0.000000000000000e+00)
"VIN:p" (0.000000000000000e+00 0.000000000000000e+00)
"VPORT1:p" (0.000000000000000e+00 -0.000000000000000e+00)
"VPORT2:p" (0.000000000000000e+00 -0.000000000000000e+00)
"VSUP:p" (0.000000000000000e+00 0.000000000000000e+00)
"freq" 9.999999999999981e-03
"vdd!" (0.000000000000000e+00 0.000000000000000e+00)
"out" (0.000000000000000e+00 0.000000000000000e+00)
"n4" (0.000000000000000e+00 0.000000000000000e+00)
"n3" (0.000000000000000e+00 -0.000000000000000e+00)
"in" (0.000000000000000e+00 0.000000000000000e+00)
"n2" (0.000000000000000e+00 0.000000000000000e+00)
"n1" (0.000000000000000e+00 0.000000000000000e+00)
"VIN:p" (0.000000000000000e+00 0.000000000000000e+00)
"VPORT1:p" (0.000000000000000e+00 -0.000000000000000e+00)
"VPORT2:p" (0.000000000000000e+00 -0.000000000000000e+00)
"VSUP:p" (0.000000000000000e+00 0.000000000000000e+00)
"freq" 1.122018454301961e-02
"vdd!" (0.000000000000000e+00 0.000000000000000e+00)
"out" (0.000000000000000e+00 0.000000000000000e+00)
"n4" (0.000000000000000e+00 0.000000000000000e+00)
"n3" (0.000000000000000e+00 -0.000000000000000e+00)
"in" (0.000000000000000e+00 0.000000000000000e+00)
"n2" (0.000000000000000e+00 0.000000000000000e+00)
"n1" (0.000000000000000e+00 0.000000000000000e+00)
"VIN:p" (0.000000000000000e+00 0.000000000000000e+00)
"VPORT1:p" (0.000000000000000e+00 -0.000000000000000e+00)
"VPORT2:p" (0.000000000000000e+00 -0.000000000000000e+00)
"VSUP:p" (0.000000000000000e+00 0.000000000000000e+00)
"freq" 1.258925411794165e-02
"vdd!" (0.000000000000000e+00 0.000000000000000e+00)
"out" (0.000000000000000e+00 0.000000000000000e+00)
"n4" (0.000000000000000e+00 0.000000000000000e+00)
"n3" (0.000000000000000e+00 -0.000000000000000e+00)
"in" (0.000000000000000e+00 0.000000000000000e+00)
"n2" (0.000000000000000e+00 0.000000000000000e+00)
"n1" (0.000000000000000e+00 0.000000000000000e+00)
"VIN:p" (0.000000000000000e+00 0.000000000000000e+00)
"VPORT1:p" (0.000000000000000e+00 -0.000000000000000e+00)
"VPORT2:p" (0.000000000000000e+00 -0.000000000000000e+00)
"VSUP:p" (0.000000000000000e+00 0.000000000000000e+00)
"freq" 1.412537544622751e-02
"vdd!" (0.000000000000000e+00 0.000000000000000e+00)
"out" (0.000000000000000e+00 0.000000000000000e+00)
"n4" (0.000000000000000e+00 0.000000000000000e+00)
"n3" (0.000000000000000e+00 -0.000000000000000e+00)
"in" (0.000000000000000e+00 0.000000000000000e+00)
"n2" (0.000000000000000e+00 0.000000000000000e+00)
"n1" (0.000000000000000e+00 0.000000000000000e+00)
"VIN:p" (0.000000000000000e+00 0.000000000000000e+00)
"VPORT1:p" (0.000000000000000e+00 -0.000000000000000e+00)
"VPORT2:p" (0.000000000000000e+00 -0.000000000000000e+00)
"VSUP:p" (0.000000000000000e+00 0.000000000000000e+00)
"freq" 1.584893192461110e-02
"vdd!" (0.000000000000000e+00 0.000000000000000e+00)
"out" (0.000000000000000e+00 0.000000000000000e+00)
"n4" (0.000000000000000e+00 0.000000000000000e+00)
"n3" (0.000000000000000e+00 -0.000000000000000e+00)
"in" (0.000000000000000e+00 0.000000000000000e+00)
"n2" (0.000000000000000e+00 0.000000000000000e+00)
"n1" (0.000000000000000e+00 0.000000000000000e+00)
"VIN:p" (0.000000000000000e+00 0.000000000000000e+00)
"VPORT1:p" (0.000000000000000e+00 -0.000000000000000e+00)
"VPORT2:p" (0.000000000000000e+00 -0.000000000000000e+00)
"VSUP:p" (0.000000000000000e+00 0.000000000000000e+00)
"freq" 1.778279410038919e-02
"vdd!" (0.000000000000000e+00 0.000000000000000e+00)
"out" (0.000000000000000e+00 0.000000000000000e+00)
"n4" (0.000000000000000e+00 0.000000000000000e+00)
"n3" (0.000000000000000e+00 -0.000000000000000e+00)
"in" (0.000000000000000e+00 0.000000000000000e+00)
"n2" (0.000000000000000e+00 0.000000000000000e+00)
"n1" (0.000000000000000e+00 0.000000000000000e+00)
"VIN:p" (0.000000000000000e+00 0.000000000000000e+00)
"VPORT1:p" (0.000000000000000e+00 -0.000000000000000e+00)
"VPORT2:p" (0.000000000000000e+00 -0.000000000000000e+00)
"VSUP:p" (0.000000000000000e+00 0.000000000000000e+00)
"freq" 1.995262314968875e-02
"vdd!" (0.000000000000000e+00 0.000000000000000e+00)
"out" (0.000000000000000e+00 0.000000000000000e+00)
"n4" (0.000000000000000e+00 0.000000000000000e+00)
"n3" (0.000000000000000e+00 -0.000000000000000e+00)
"in" (0.000000000000000e+00 0.000000000000000e+00)
"n2" (0.000000000000000e+00 0.000000000000000e+00)
"n1" (0.000000000000000e+00 0.000000000000000e+00)
"VIN:p" (0.000000000000000e+00 0.000000000000000e+00)
"VPORT1:p" (0.000000000000000e+00 -0.000000000000000e+00)
"VPORT2:p" (0.000000000000000e+00 -0.000000000000000e+00)
"VSUP:p" (0.000000000000000e+00 0.000000000000000e+00)
"freq" 2.238721138568334e-02
"vdd!" (0.000000000000000e+00 0.000000000000000e+00)
"out" (0.000000000000000e+00 0.000000000000000e+00)
"n4" (0.000000000000000e+00 0.000000000000000e+00)
"n3" (0.000000000000000e+00 -0.000000000000000e+00)
"in" (0.000000000000000e+00 0.000000000000000e+00)
"n2" (0.000000000000000e+00 0.000000000000000e+00)
"n1" (0.000000000000000e+00 0.000000000000000e+00)
"VIN:p" (0.000000000000000e+00 0.000000000000000e+00)
"VPORT1:p" (0.000000000000000e+00 -0.000000000000000e+00)
"VPORT2:p" (0.000000000000000e+00 -0.000000000000000e+00)
"VSUP:p" (0.000000000000000e+00 0.000000000000000e+00)
"freq" 2.511886431509574e-02
"vdd!" (0.000000000000000e+00 0.000000000000000e+00)
"out" (0.000000000000000e+00 0.000000000000000e+00)
"n4" (0.000000000000000e+00 0.000000000000000e+00)
"n3" (0.000000000000000e+00 -0.000000000000000e+00)
"in" (0.000000000000000e+00 0.000000000000000e+00)
"n2" (0.000000000000000e+00 0.000000000000000e+00)
"n1" (0.000000000000000e+00 0.000000000000000e+00)
"VIN:p" (0.000000000000000e+00 0.000000000000000e+00)
"VPORT1:p" (0.000000000000000e+00 -0.000000000000000e+00)
"VPORT2:p" (0.000000000000000e+00 -0.000000000000000e+00)
"VSUP:p" (0.000000000000000e+00 0.000000000000000e+00)
"freq" 2.818382931264447e-02
"vdd!" (0.000000000000000e+00 0.000000000000000e+00)
"out" (0.000000000000000e+00 0.000000000000000e+00)
"n4" (0.000000000000000e+00 0.000000000000000e+00)
"n3" (0.000000000000000e+00 -0.000000000000000e+00)
