HEADER
"PSFversion" "1.00"
"simulator" "spectre"
"version" "25.1.0.235.isr5"
"date" "7:23:48 PM, Fri Jul 17, 2026"
"design" "// Point Netlist Generated on: Jul 17 08:44:01 2026"
"analysis type" "xf"
"analysis name" "xf"
"analysis description" "Transfer Function Analysis `xf': freq = (1 mHz -> 10 GHz)"
"xVecSorted" "ascending"
"tolerance.relative" 1.000000000000000e-03
"start" 1.000000000000000e-03
"stop" 1.000000000000000e+10
"operating point producer" "dcOp"
"stimuli" "sources"
"output" "pair of nodes"
"ground" "0"
"positive output signal" "out"
"negative output signal" "0"
TYPE
"sweep" FLOAT DOUBLE PROP(
"key" "sweep"
)
"V/V" COMPLEX DOUBLE PROP(
"units" "V/V"
"key" "branch"
)
"V/A" COMPLEX DOUBLE PROP(
"units" "V/A"
"key" "node"
)
"V/A*turn" COMPLEX DOUBLE PROP(
"units" "V/A*turn"
"key" "branch"
)
"V/Wb" COMPLEX DOUBLE PROP(
"units" "V/Wb"
"key" "branch"
)
"V/C" COMPLEX DOUBLE PROP(
"units" "V/C"
"key" "branch"
)
"V/W" COMPLEX DOUBLE PROP(
"units" "V/W"
"key" "branch"
)
"V/" COMPLEX DOUBLE PROP(
"units" "V/"
"key" "branch"
)
"V/(V/s)" COMPLEX DOUBLE PROP(
"units" "V/(V/s)"
"key" "branch"
)
"V/(A/s)" COMPLEX DOUBLE PROP(
"units" "V/(A/s)"
"key" "branch"
)
"V/(1/s)" COMPLEX DOUBLE PROP(
"units" "V/(1/s)"
"key" "branch"
)
"V/Coul" COMPLEX DOUBLE PROP(
"units" "V/Coul"
"key" "branch"
)
"V/(V/m)" COMPLEX DOUBLE PROP(
"units" "V/(V/m)"
"key" "branch"
)
SWEEP
"freq" "sweep" PROP(
"sweep_direction" 0
"units" "Hz"
"plot" 0
"grid" 3
)
TRACE
"IB1" "V/A"
"IB2" "V/A"
"IB3" "V/A"
"IPORT" "V/A"
"VIN" "V/V"
"VPORT1" "V/V"
"VPORT2" "V/V"
"VSUP" "V/V"
VALUE
"freq" 1.000000000000000e-03
"IB1" (-6.685264075456237e+02 6.961935272431992e-09)
"IB2" (8.608748415028028e+02 -5.963246732333085e-09)
"IB3" (-9.868069240844719e+02 6.008543892064743e-09)
"IPORT" (9.868069240844719e+02 -6.008543892064743e-09)
"VIN" (5.752333208732351e-01 -5.527983614809334e-12)
"VPORT1" (3.775279470016484e-23 6.200290766430636e-12)
"VPORT2" (-3.578322400155418e-03 -3.177172828276297e-14)
"VSUP" (1.702469093701811e-01 7.768255670957593e-13)
"freq" 1.122018454301963e-03
"IB1" (-6.685264075456237e+02 7.811419853324461e-09)
"IB2" (8.608748415028028e+02 -6.690872881233601e-09)
"IB3" (-9.868069240844719e+02 6.741697130379988e-09)
"IPORT" (9.868069240844719e+02 -6.741697130379988e-09)
"VIN" (5.752333208732351e-01 -6.202499630894951e-12)
"VPORT1" (4.752795261428568e-23 6.956840661973238e-12)
"VPORT2" (-3.578322400155418e-03 -3.564846545832770e-14)
"VSUP" (1.702469093701811e-01 8.716126220550299e-13)
"freq" 1.258925411794167e-03
"IB1" (-6.685264075456237e+02 8.764557229730779e-09)
"IB2" (8.608748415028028e+02 -7.507282848132647e-09)
"IB3" (-9.868069240844719e+02 7.564308593600934e-09)
"IPORT" (9.868069240844719e+02 -7.564308593600934e-09)
"VIN" (5.752333208732351e-01 -6.959319048665249e-12)
"VPORT1" (5.983414731667324e-23 7.805703606372258e-12)
"VPORT2" (-3.578322400155418e-03 -3.999823611178976e-14)
"VSUP" (1.702469093701811e-01 9.779654469482659e-13)
"freq" 1.412537544622754e-03
"IB1" (-6.685264075456237e+02 9.833994955543625e-09)
"IB2" (8.608748415028028e+02 -8.423309897269434e-09)
"IB3" (-9.868069240844719e+02 8.487293836055181e-09)
"IPORT" (9.868069240844719e+02 -8.487293836055181e-09)
"VIN" (5.752333208732351e-01 -7.808484401977591e-12)
"VPORT1" (7.532672854999575e-23 8.758143495161063e-12)
"VPORT2" (-3.578322400155418e-03 -4.487875905695531e-14)
"VSUP" (1.702469093701811e-01 1.097295279145623e-12)
"freq" 1.584893192461113e-03
"IB1" (-6.685264075456237e+02 1.103392381963236e-08)
"IB2" (8.608748415028028e+02 -9.451109151040680e-09)
"IB3" (-9.868069240844719e+02 9.522900311137213e-09)
"IPORT" (9.868069240844719e+02 -9.522900311137213e-09)
"VIN" (5.752333208732351e-01 -8.761263599147886e-12)
"VPORT1" (9.483073275891079e-23 9.826798626995411e-12)
"VPORT2" (-3.578322400155418e-03 -5.035479586807524e-14)
"VSUP" (1.702469093701811e-01 1.231185553019813e-12)
"freq" 1.778279410038922e-03
"IB1" (-6.685264075456237e+02 1.238026614898952e-08)
"IB2" (8.608748415028028e+02 -1.060431888108981e-08)
"IB3" (-9.868069240844719e+02 1.068486988757386e-08)
"IPORT" (9.868069240844719e+02 -1.068486988757386e-08)
"VIN" (5.752333208732351e-01 -9.830299441247969e-12)
"VPORT1" (1.193848192892544e-22 1.102584940619805e-11)
"VPORT2" (-3.578322400155418e-03 -5.649901022658869e-14)
"VSUP" (1.702469093701811e-01 1.381412911158198e-12)
"freq" 1.995262314968878e-03
"IB1" (-6.685264075456237e+02 1.389088708833614e-08)
"IB2" (8.608748415028028e+02 -1.189824147988551e-08)
"IB3" (-9.868069240844719e+02 1.198862119567322e-08)
"IPORT" (9.868069240844719e+02 -1.198862119567322e-08)
"VIN" (5.752333208732351e-01 -1.102977738439450e-11)
"VPORT1" (1.502965827856968e-22 1.237120650810855e-11)
"VPORT2" (-3.578322400155418e-03 -6.339293212402784e-14)
"VSUP" (1.702469093701811e-01 1.549970779330496e-12)
"freq" 2.238721138568338e-03
"IB1" (-6.685264075456237e+02 1.558583165973802e-08)
"IB2" (8.608748415028028e+02 -1.335004651417265e-08)
"IB3" (-9.868069240844719e+02 1.345145422318102e-08)
"IPORT" (9.868069240844719e+02 -1.345145422318102e-08)
"VIN" (5.752333208732351e-01 -1.237561377213307e-11)
"VPORT1" (1.892121873747394e-22 1.388072200407835e-11)
"VPORT2" (-3.578322400155418e-03 -7.112803971547101e-14)
"VSUP" (1.702469093701811e-01 1.739095818037614e-12)
"freq" 2.511886431509578e-03
"IB1" (-6.685264075456237e+02 1.748759074786986e-08)
"IB2" (8.608748415028028e+02 -1.497899855469131e-08)
"IB3" (-9.868069240844719e+02 1.509277987560718e-08)
"IPORT" (9.868069240844719e+02 -1.509277987560718e-08)
"VIN" (5.752333208732351e-01 -1.388566703564684e-11)
"VPORT1" (2.382040309072189e-22 1.557442624761123e-11)
"VPORT2" (-3.578322400155418e-03 -7.980697317908141e-14)
"VSUP" (1.702469093701811e-01 1.951297601637570e-12)
"freq" 2.818382931264451e-03
"IB1" (-6.685264075456237e+02 1.962139954039025e-08)
"IB2" (8.608748415028028e+02 -1.680671280532608e-08)
"IB3" (-9.868069240844719e+02 1.693437754714855e-08)
"IPORT" (9.868069240844719e+02 -1.693437754714855e-08)
"VIN" (5.752333208732351e-01 -1.557997466428818e-11)
"VPORT1" (2.998811077009010e-22 1.747479366498469e-11)
"VPORT2" (-3.578322400155418e-03 -8.954489668891124e-14)
"VSUP" (1.702469093701811e-01 2.189391918872516e-12)
"freq" 3.162277660168376e-03
"IB1" (-6.685264075456237e+02 2.201557238354991e-08)
"IB2" (8.608748415028028e+02 -1.885744192372898e-08)
"IB3" (-9.868069240844719e+02 1.900068412001749e-08)
"IPORT" (9.868069240844719e+02 -1.900068412001749e-08)
"VIN" (5.752333208732351e-01 -1.748101909088838e-11)
"VPORT1" (3.775279470016478e-22 1.960704097723186e-11)
"VPORT2" (-3.578322400155418e-03 -1.004710265735211e-13)
"VSUP" (1.702469093701811e-01 2.456538136674551e-12)
"freq" 3.548133892335751e-03
"IB1" (-6.685264075456237e+02 2.470187849636367e-08)
"IB2" (8.608748415028028e+02 -2.115839783935144e-08)
"IB3" (-9.868069240844719e+02 2.131911822702188e-08)
"IPORT" (9.868069240844719e+02 -2.131911822702188e-08)
"VIN" (5.752333208732351e-01 -1.961402601998169e-11)
"VPORT1" (4.752795261428557e-22 2.199946181070895e-11)
"VPORT2" (-3.578322400155418e-03 -1.127303459381537e-13)
"VSUP" (1.702469093701811e-01 2.756281123045404e-12)
"freq" 3.981071705534968e-03
"IB1" (-6.685264075456237e+02 2.771596352884489e-08)
"IB2" (8.608748415028028e+02 -2.374011283921511e-08)
"IB3" (-9.868069240844719e+02 2.392044408016392e-08)
"IPORT" (9.868069240844719e+02 -2.392044408016392e-08)
"VIN" (5.752333208732351e-01 -2.200729915757836e-11)
"VPORT1" (5.983414731667317e-22 2.468380213632673e-11)
"VPORT2" (-3.578322400155418e-03 -1.264855285024527e-13)
"VSUP" (1.702469093701811e-01 3.092598285301082e-12)
"freq" 4.466835921509626e-03
"IB1" (-6.685264075456237e+02 3.109782255812411e-08)
"IB2" (8.608748415028028e+02 -2.663684471281032e-08)
"IB3" (-9.868069240844719e+02 2.683917969304205e-08)
"IPORT" (9.868069240844719e+02 -2.683917969304205e-08)
"VIN" (5.752333208732351e-01 -2.469259578414696e-11)
"VPORT1" (7.532672854999558e-22 2.769568151929682e-11)
"VPORT2" (-3.578322400155418e-03 -1.419190971818890e-13)
"VSUP" (1.702469093701811e-01 3.469952347850422e-12)
"freq" 5.011872336272717e-03
"IB1" (-6.685264075456237e+02 3.489233079882315e-08)
"IB2" (8.608748415028028e+02 -2.988703133214886e-08)
"IB3" (-9.868069240844719e+02 3.011405491391970e-08)
"IPORT" (9.868069240844719e+02 -3.011405491391970e-08)
"VIN" (5.752333208732351e-01 -2.770554815443175e-11)
"VPORT1" (9.483073275891065e-22 3.107506576912086e-11)
"VPORT2" (-3.578322400155418e-03 -1.592358460559532e-13)
"VSUP" (1.702469093701811e-01 3.893350569836601e-12)
"freq" 5.623413251903483e-03
"IB1" (-6.685264075456237e+02 3.914983906988833e-08)
"IB2" (8.608748415028028e+02 -3.353380069897201e-08)
"IB3" (-9.868069240844719e+02 3.378852534728062e-08)
"IPORT" (9.868069240844719e+02 -3.378852534728062e-08)
"VIN" (5.752333208732351e-01 -3.108613631582412e-11)
"VPORT1" (1.193848192892542e-21 3.486679726160084e-11)
"VPORT2" (-3.578322400155418e-03 -1.786655578611660e-13)
"VSUP" (1.702469093701811e-01 4.368411188423730e-12)
"freq" 6.309573444801923e-03
"IB1" (-6.685264075456237e+02 4.392684191936671e-08)
"IB2" (8.608748415028028e+02 -3.762554322713067e-08)
"IB3" (-9.868069240844719e+02 3.791134898329849e-08)
"IPORT" (9.868069240844719e+02 -3.791134898329849e-08)
"VIN" (5.752333208732351e-01 -3.487921861930111e-11)
"VPORT1" (1.502965827856964e-21 3.912118996992129e-11)
"VPORT2" (-3.578322400155418e-03 -2.004660530683835e-13)
"VSUP" (1.702469093701811e-01 4.901437969390598e-12)
"freq" 7.079457843841368e-03
"IB1" (-6.685264075456237e+02 4.928672727273454e-08)
"IB2" (8.608748415028028e+02 -4.221655385397687e-08)
"IB3" (-9.868069240844719e+02 4.253723318674289e-08)
"IPORT" (9.868069240844719e+02 -4.253723318674289e-08)
"VIN" (5.752333208732351e-01 -3.913512696248850e-11)
"VPORT1" (1.892121873747390e-21 4.389469710050457e-11)
"VPORT2" (-3.578322400155418e-03 -2.249266110038031e-13)
"VSUP" (1.702469093701811e-01 5.499503854272591e-12)
"freq" 7.943282347242802e-03
"IB1" (-6.685264075456237e+02 5.530061755215603e-08)
"IB2" (8.608748415028028e+02 -4.736775250119471e-08)
"IB3" (-9.868069240844719e+02 4.772756063047143e-08)
"IPORT" (9.868069240844719e+02 -4.772756063047143e-08)
"VIN" (5.752333208732351e-01 -4.391033466336243e-11)
"VPORT1" (2.382040309072184e-21 4.925066019276100e-11)
"VPORT2" (-3.578322400155418e-03 -2.523718084098661e-13)
"VSUP" (1.702469093701811e-01 6.170544813998623e-12)
"freq" 8.912509381337440e-03
"IB1" (-6.685264075456237e+02 6.204831342781413e-08)
"IB2" (8.608748415028028e+02 -5.314749244514845e-08)
"IB3" (-9.868069240844719e+02 5.355120380620480e-08)
"IPORT" (9.868069240844719e+02 -5.355120380620480e-08)
"VIN" (5.752333208732351e-01 -4.926820582686783e-11)
"VPORT1" (2.998811077009004e-21 5.526014962283294e-11)
"VPORT2" (-3.578322400155418e-03 -2.831658263814291e-13)
"VSUP" (1.702469093701811e-01 6.923465154403729e-12)
"freq" 9.999999999999981e-03
"IB1" (-6.685264075456237e+02 6.961935272431978e-08)
"IB2" (8.608748415028028e+02 -5.963246732333075e-08)
"IB3" (-9.868069240844719e+02 6.008543892064732e-08)
"IPORT" (9.868069240844719e+02 -6.008543892064732e-08)
"VIN" (5.752333208732351e-01 -5.527983614809324e-11)
"VPORT1" (3.775279470016470e-21 6.200290766430624e-11)
"VPORT2" (-3.578322400155418e-03 -3.177172828276291e-13)
"VSUP" (1.702469093701811e-01 7.768255670957575e-12)
"freq" 1.122018454301961e-02
"IB1" (-6.685264075456237e+02 7.811419853324444e-08)
"IB2" (8.608748415028028e+02 -6.690872881233588e-08)
"IB3" (-9.868069240844719e+02 6.741697130379976e-08)
"IPORT" (9.868069240844719e+02 -6.741697130379976e-08)
"VIN" (5.752333208732351e-01 -6.202499630894937e-11)
"VPORT1" (4.752795261428551e-21 6.956840661973223e-11)
"VPORT2" (-3.578322400155418e-03 -3.564846545832762e-13)
"VSUP" (1.702469093701811e-01 8.716126220550281e-12)
"freq" 1.258925411794165e-02
"IB1" (-6.685264075456237e+02 8.764557229730765e-08)
"IB2" (8.608748415028028e+02 -7.507282848132638e-08)
"IB3" (-9.868069240844719e+02 7.564308593600921e-08)
"IPORT" (9.868069240844719e+02 -7.564308593600921e-08)
"VIN" (5.752333208732351e-01 -6.959319048665237e-11)
"VPORT1" (5.983414731667303e-21 7.805703606372245e-11)
"VPORT2" (-3.578322400155418e-03 -3.999823611178969e-13)
"VSUP" (1.702469093701811e-01 9.779654469482640e-12)
"freq" 1.412537544622751e-02
"IB1" (-6.685264075456237e+02 9.833994955543606e-08)
"IB2" (8.608748415028028e+02 -8.423309897269420e-08)
"IB3" (-9.868069240844719e+02 8.487293836055161e-08)
"IPORT" (9.868069240844719e+02 -8.487293836055161e-08)
"VIN" (5.752333208732351e-01 -7.808484401977575e-11)
"VPORT1" (7.532672854999542e-21 8.758143495161047e-11)
"VPORT2" (-3.578322400155418e-03 -4.487875905695525e-13)
"VSUP" (1.702469093701811e-01 1.097295279145620e-11)
"freq" 1.584893192461110e-02
"IB1" (-6.685264075456237e+02 1.103392381963235e-07)
"IB2" (8.608748415028028e+02 -9.451109151040665e-08)
"IB3" (-9.868069240844719e+02 9.522900311137195e-08)
"IPORT" (9.868069240844719e+02 -9.522900311137195e-08)
"VIN" (5.752333208732351e-01 -8.761263599147874e-11)
"VPORT1" (9.483073275891045e-21 9.826798626995392e-11)
"VPORT2" (-3.578322400155418e-03 -5.035479586807516e-13)
"VSUP" (1.702469093701811e-01 1.231185553019810e-11)
"freq" 1.778279410038919e-02
"IB1" (-6.685264075456237e+02 1.238026614898950e-07)
"IB2" (8.608748415028028e+02 -1.060431888108979e-07)
"IB3" (-9.868069240844719e+02 1.068486988757384e-07)
"IPORT" (9.868069240844719e+02 -1.068486988757384e-07)
"VIN" (5.752333208732351e-01 -9.830299441247955e-11)
"VPORT1" (1.193848192892539e-20 1.102584940619803e-10)
"VPORT2" (-3.578322400155418e-03 -5.649901022658858e-13)
"VSUP" (1.702469093701811e-01 1.381412911158195e-11)
"freq" 1.995262314968875e-02
"IB1" (-6.685264075456237e+02 1.389088708833611e-07)
"IB2" (8.608748415028028e+02 -1.189824147988549e-07)
"IB3" (-9.868069240844719e+02 1.198862119567319e-07)
"IPORT" (9.868069240844719e+02 -1.198862119567319e-07)
"VIN" (5.752333208732351e-01 -1.102977738439448e-10)
"VPORT1" (1.502965827856962e-20 1.237120650810853e-10)
"VPORT2" (-3.578322400155418e-03 -6.339293212402774e-13)
"VSUP" (1.702469093701811e-01 1.549970779330494e-11)
"freq" 2.238721138568334e-02
"IB1" (-6.685264075456237e+02 1.558583165973799e-07)
"IB2" (8.608748415028028e+02 -1.335004651417262e-07)
"IB3" (-9.868069240844719e+02 1.345145422318099e-07)
"IPORT" (9.868069240844719e+02 -1.345145422318099e-07)
"VIN" (5.752333208732351e-01 -1.237561377213305e-10)
"VPORT1" (1.892121873747387e-20 1.388072200407832e-10)
"VPORT2" (-3.578322400155418e-03 -7.112803971547087e-13)
"VSUP" (1.702469093701811e-01 1.739095818037609e-11)
"freq" 2.511886431509574e-02
"IB1" (-6.685264075456237e+02 1.748759074786982e-07)
"IB2" (8.608748415028028e+02 -1.497899855469128e-07)
"IB3" (-9.868069240844719e+02 1.509277987560716e-07)
"IPORT" (9.868069240844719e+02 -1.509277987560716e-07)
"VIN" (5.752333208732351e-01 -1.388566703564681e-10)
"VPORT1" (2.382040309072181e-20 1.557442624761121e-10)
"VPORT2" (-3.578322400155418e-03 -7.980697317908130e-13)
"VSUP" (1.702469093701811e-01 1.951297601637568e-11)
"freq" 2.818382931264447e-02
"IB1" (-6.685264075456237e+02 1.962139954039021e-07)
"IB2" (8.608748415028028e+02 -1.680671280532605e-07)
"IB3" (-9.868069240844719e+02 1.693437754714852e-07)
"IPORT" (9.868069240844719e+02 -1.693437754714852e-07)
"VIN" (5.752333208732351e-01 -1.557997466428816e-10)
"VPORT1" (2.998811077009000e-20 1.747479366498466e-10)
"VPORT2" (-3.578322400155418e-03 -8.954489668891104e-13)
"VSUP" (1.702469093701811e-01 2.189391918872514e-11)
"freq" 3.162277660168371e-02
"IB1" (-6.685264075456237e+02 2.201557238354988e-07)
"IB2" (8.608748415028028e+02 -1.885744192372894e-07)
"IB3" (-9.868069240844719e+02 1.900068412001746e-07)
"IPORT" (9.868069240844719e+02 -1.900068412001746e-07)
"VIN" (5.752333208732351e-01 -1.748101909088835e-10)
"VPORT1" (3.775279470016465e-20 1.960704097723182e-10)
"VPORT2" (-3.578322400155418e-03 -1.004710265735209e-12)
"VSUP" (1.702469093701811e-01 2.456538136674546e-11)
"freq" 3.548133892335745e-02
"IB1" (-6.685264075456237e+02 2.470187849636362e-07)
"IB2" (8.608748415028028e+02 -2.115839783935139e-07)
"IB3" (-9.868069240844719e+02 2.131911822702184e-07)
"IPORT" (9.868069240844719e+02 -2.131911822702184e-07)
"VIN" (5.752333208732351e-01 -1.961402601998165e-10)
"VPORT1" (4.752795261428541e-20 2.199946181070891e-10)
"VPORT2" (-3.578322400155418e-03 -1.127303459381535e-12)
"VSUP" (1.702469093701811e-01 2.756281123045400e-11)
"freq" 3.981071705534961e-02
"IB1" (-6.685264075456237e+02 2.771596352884483e-07)
"IB2" (8.608748415028028e+02 -2.374011283921506e-07)
"IB3" (-9.868069240844719e+02 2.392044408016386e-07)
"IPORT" (9.868069240844719e+02 -2.392044408016386e-07)
"VIN" (5.752333208732351e-01 -2.200729915757832e-10)
"VPORT1" (5.983414731667292e-20 2.468380213632668e-10)
"VPORT2" (-3.578322400155418e-03 -1.264855285024526e-12)
"VSUP" (1.702469093701811e-01 3.092598285301077e-11)
"freq" 4.466835921509617e-02
"IB1" (-6.685264075456237e+02 3.109782255812405e-07)
"IB2" (8.608748415028028e+02 -2.663684471281027e-07)
"IB3" (-9.868069240844719e+02 2.683917969304200e-07)
"IPORT" (9.868069240844719e+02 -2.683917969304200e-07)
"VIN" (5.752333208732351e-01 -2.469259578414692e-10)
"VPORT1" (7.532672854999528e-20 2.769568151929676e-10)
"VPORT2" (-3.578322400155418e-03 -1.419190971818887e-12)
"VSUP" (1.702469093701811e-01 3.469952347850417e-11)
"freq" 5.011872336272707e-02
"IB1" (-6.685264075456237e+02 3.489233079882307e-07)
"IB2" (8.608748415028028e+02 -2.988703133214881e-07)
"IB3" (-9.868069240844719e+02 3.011405491391963e-07)
"IPORT" (9.868069240844719e+02 -3.011405491391963e-07)
"VIN" (5.752333208732351e-01 -2.770554815443169e-10)
"VPORT1" (9.483073275891025e-20 3.107506576912080e-10)
"VPORT2" (-3.578322400155418e-03 -1.592358460559529e-12)
"VSUP" (1.702469093701811e-01 3.893350569836593e-11)
"freq" 5.623413251903472e-02
"IB1" (-6.685264075456237e+02 3.914983906988826e-07)
"IB2" (8.608748415028028e+02 -3.353380069897195e-07)
"IB3" (-9.868069240844719e+02 3.378852534728055e-07)
"IPORT" (9.868069240844719e+02 -3.378852534728055e-07)
"VIN" (5.752333208732351e-01 -3.108613631582407e-10)
"VPORT1" (1.193848192892537e-19 3.486679726160078e-10)
"VPORT2" (-3.578322400155418e-03 -1.786655578611657e-12)
"VSUP" (1.702469093701811e-01 4.368411188423722e-11)
"freq" 6.309573444801911e-02
"IB1" (-6.685264075456237e+02 4.392684191936664e-07)
"IB2" (8.608748415028028e+02 -3.762554322713059e-07)
"IB3" (-9.868069240844719e+02 3.791134898329843e-07)
"IPORT" (9.868069240844719e+02 -3.791134898329843e-07)
"VIN" (5.752333208732351e-01 -3.487921861930106e-10)
"VPORT1" (1.502965827856959e-19 3.912118996992122e-10)
"VPORT2" (-3.578322400155418e-03 -2.004660530683831e-12)
"VSUP" (1.702469093701811e-01 4.901437969390589e-11)
"freq" 7.079457843841354e-02
"IB1" (-6.685264075456237e+02 4.928672727273445e-07)
"IB2" (8.608748415028028e+02 -4.221655385397679e-07)
"IB3" (-9.868069240844719e+02 4.253723318674281e-07)
"IPORT" (9.868069240844719e+02 -4.253723318674281e-07)
"VIN" (5.752333208732351e-01 -3.913512696248842e-10)
"VPORT1" (1.892121873747383e-19 4.389469710050448e-10)
"VPORT2" (-3.578322400155418e-03 -2.249266110038026e-12)
"VSUP" (1.702469093701811e-01 5.499503854272578e-11)
"freq" 7.943282347242786e-02
"IB1" (-6.685264075456237e+02 5.530061755215593e-07)
"IB2" (8.608748415028028e+02 -4.736775250119464e-07)
"IB3" (-9.868069240844719e+02 4.772756063047134e-07)
"IPORT" (9.868069240844719e+02 -4.772756063047134e-07)
"VIN" (5.752333208732351e-01 -4.391033466336234e-10)
"VPORT1" (2.382040309072175e-19 4.925066019276091e-10)
"VPORT2" (-3.578322400155418e-03 -2.523718084098655e-12)
"VSUP" (1.702469093701811e-01 6.170544813998610e-11)
"freq" 8.912509381337422e-02
"IB1" (-6.685264075456237e+02 6.204831342781400e-07)
"IB2" (8.608748415028028e+02 -5.314749244514836e-07)
"IB3" (-9.868069240844719e+02 5.355120380620470e-07)
"IPORT" (9.868069240844719e+02 -5.355120380620470e-07)
"VIN" (5.752333208732351e-01 -4.926820582686773e-10)
"VPORT1" (2.998811077008993e-19 5.526014962283282e-10)
"VPORT2" (-3.578322400155418e-03 -2.831658263814284e-12)
