HEADER
"PSFversion" "1.00"
"simulator" "spectre"
"version" "25.1.0.235.isr5"
"date" "9:13:52 AM, Sun Jul 19, 2026"
"design" "// tb_fdota_stb_dm.scs (SKY130) -- fully-differential two-stage OTA with"
"analysis type" "stb"
"analysis name" "stb"
"analysis description" "Stability Analysis `stb': freq = (1 mHz -> 10 GHz)"
"xVecSorted" "ascending"
"tolerance.relative" 1.000000000000000e-03
"operating point producer" "stb"
"probe" "FDPRB.IPRB_DM"
"marginFilename" "stb.margin.stb"
TYPE
"sweep" FLOAT DOUBLE PROP(
"key" "sweep"
)
"LOOPGAIN" COMPLEX DOUBLE PROP(
"key" "gain"
)
"IMPEDANCE" COMPLEX DOUBLE PROP(
"key" "advprobe"
)
"ADMITTANCE" COMPLEX DOUBLE PROP(
"key" "advprobe"
)
SWEEP
"freq" "sweep" PROP(
"sweep_direction" 0
"units" "Hz"
"plot" 0
"grid" 3
)
TRACE
"loopGain" "LOOPGAIN"
"ZL" "IMPEDANCE"
"ZG" "IMPEDANCE"
"YL" "ADMITTANCE"
"YG" "ADMITTANCE"
VALUE
"freq" 1.000000000000000e-03
"loopGain" (-5.899331130009689e+03 2.076955194699749e-02)
"ZL" (3.133473244026470e+09 -1.748275584074205e+04)
"ZG" (3.333330555557868e+05 -2.020775149989104e-03)
"YL" (4.752917996679367e-02 -2.601909361120917e-09)
"YG" (3.000002500000002e-06 1.818700666117908e-14)
"freq" 1.122018454301963e-03
"loopGain" (-5.899331129998489e+03 2.330382057210061e-02)
"ZL" (3.133473244014112e+09 -1.961597468537081e+04)
"ZG" (3.333330555564599e+05 -2.267347014455689e-03)
"YL" (4.752917996679363e-02 -2.919390319598697e-09)
"YG" (3.000002500000001e-06 2.040615710235570e-14)
"freq" 1.258925411794167e-03
"loopGain" (-5.899331129966928e+03 2.614731673746456e-02)
"ZL" (3.133473243969486e+09 -2.200948559570273e+04)
"ZG" (3.333330555557868e+05 -2.544005187792841e-03)
"YL" (4.752917996679359e-02 -3.275609813900242e-09)
"YG" (3.000002500000002e-06 2.289608485022805e-14)
"freq" 1.412537544622754e-03
"loopGain" (-5.899331129944655e+03 2.933777190984080e-02)
"ZL" (3.133473243942373e+09 -2.469504900795922e+04)
"ZG" (3.333330555564598e+05 -2.854420773863868e-03)
"YL" (4.752917996679352e-02 -3.675294660288687e-09)
"YG" (3.000002500000001e-06 2.568982973321964e-14)
"freq" 1.584893192461113e-03
"loopGain" (-5.899331129903019e+03 3.291752149068983e-02)
"ZL" (3.133473243882443e+09 -2.770830071620737e+04)
"ZG" (3.333330555557869e+05 -3.202712778608069e-03)
"YL" (4.752917996679345e-02 -4.123748433841365e-09)
"YG" (3.000002500000001e-06 2.882446304854761e-14)
"freq" 1.778279410038922e-03
"loopGain" (-5.899331129859334e+03 3.693406658218556e-02)
"ZL" (3.133473243822350e+09 -3.108922474036942e+04)
"ZG" (3.333330555557869e+05 -3.593502841433143e-03)
"YL" (4.752917996679336e-02 -4.626921843668824e-09)
"YG" (3.000002500000002e-06 3.234157947581544e-14)
"freq" 1.995262314968878e-03
"loopGain" (-5.899331129791742e+03 4.144070429710264e-02)
"ZL" (3.133473243736033e+09 -3.488268388760521e+04)
"ZG" (3.333330555557868e+05 -4.031976503717861e-03)
"YL" (4.752917996679325e-02 -5.191491695209268e-09)
"YG" (3.000002500000002e-06 3.628784901313848e-14)
"freq" 2.238721138568338e-03
"loopGain" (-5.899331129720244e+03 4.649723498008648e-02)
"ZL" (3.133473243638877e+09 -3.913901505630321e+04)
"ZG" (3.333330555557869e+05 -4.523952044483821e-03)
"YL" (4.752917996679309e-02 -5.824949487380165e-09)
"YG" (3.000002500000001e-06 4.071563625966477e-14)
"freq" 2.511886431509578e-03
"loopGain" (-5.899331129629235e+03 5.217075572089955e-02)
"ZL" (3.133473243522043e+09 -4.391469717487315e+04)
"ZG" (3.333330555564598e+05 -5.075957689820435e-03)
"YL" (4.752917996679291e-02 -6.535700820217278e-09)
"YG" (3.000002500000001e-06 4.568369526199012e-14)
"freq" 2.818382931264451e-03
"loopGain" (-5.899331129509794e+03 5.853655069254508e-02)
"ZL" (3.133473243362876e+09 -4.927310064279095e+04)
"ZG" (3.333330555564597e+05 -5.695318201236628e-03)
"YL" (4.752917996679268e-02 -7.333176932080231e-09)
"YG" (3.000002500000002e-06 5.125794914465991e-14)
"freq" 3.162277660168376e-03
"loopGain" (-5.899331129355562e+03 6.567909012645728e-02)
"ZL" (3.133473243152899e+09 -5.528532821801779e+04)
"ZG" (3.333330555557867e+05 -6.390252112906300e-03)
"YL" (4.752917996679239e-02 -8.227959846455426e-09)
"YG" (3.000002500000002e-06 5.751236486998002e-14)
"freq" 3.548133892335751e-03
"loopGain" (-5.899331129166261e+03 7.369315118128324e-02)
"ZL" (3.133473242900638e+09 -6.203115850776967e+04)
"ZG" (3.333330555557866e+05 -7.169980798323783e-03)
"YL" (4.752917996679201e-02 -9.231922788978460e-09)
"YG" (3.000002500000003e-06 6.452993473466523e-14)
"freq" 3.981071705534968e-03
"loopGain" (-5.899331128927946e+03 8.268507557772571e-02)
"ZL" (3.133473242576731e+09 -6.960010458012068e+04)
"ZG" (3.333330555551136e+05 -8.044850757602159e-03)
"YL" (4.752917996679153e-02 -1.035838773792458e-08)
"YG" (3.000002500000003e-06 7.240377762719573e-14)
"freq" 4.466835921509626e-03
"loopGain" (-5.899331128627924e+03 9.277418068884351e-02)
"ZL" (3.133473242183247e+09 -7.809260175060660e+04)
"ZG" (3.333330555557866e+05 -9.026471029086288e-03)
"YL" (4.752917996679094e-02 -1.162230219876641e-08)
"YG" (3.000002500000002e-06 8.123837465888948e-14)
"freq" 5.011872336272717e-03
"loopGain" (-5.899331128250220e+03 1.040943428089602e-01)
"ZL" (3.133473241679917e+09 -8.762134029457347e+04)
"ZG" (3.333330555557864e+05 -1.012786707185574e-02)
"YL" (4.752917996679021e-02 -1.304043754848999e-08)
"YG" (3.000002500000002e-06 9.115095556477029e-14)
"freq" 5.623413251903483e-03
"loopGain" (-5.899331127778582e+03 1.167957736108327e-01)
"ZL" (3.133473241055858e+09 -9.831276078193220e+04)
"ZG" (3.333330555564592e+05 -1.136365377852171e-02)
"YL" (4.752917996678927e-02 -1.463161158157772e-08)
"YG" (3.000002500000004e-06 1.022730542709306e-13)
"freq" 6.309573444801923e-03
"loopGain" (-5.899331127176096e+03 1.310470133623627e-01)
"ZL" (3.133473240242208e+09 -1.103087318615319e+05)
"ZG" (3.333330555551131e+05 -1.275022920024431e-02)
"YL" (4.752917996678811e-02 -1.641693821070814e-08)
"YG" (3.000002500000004e-06 1.147522542698103e-13)
"freq" 7.079457843841368e-03
"loopGain" (-5.899331126422475e+03 1.470371673549441e-01)
"ZL" (3.133473239250583e+09 -1.237684327806642e+05)
"ZG" (3.333330555564588e+05 -1.430599251265468e-02)
"YL" (4.752917996678663e-02 -1.842010763554901e-08)
"YG" (3.000002500000005e-06 1.287541469634779e-13)
"freq" 7.943282347242802e-03
"loopGain" (-5.899331125469858e+03 1.649784152137896e-01)
"ZL" (3.133473237976678e+09 -1.388704655831205e+05)
"ZG" (3.333330555557857e+05 -1.605158757633358e-02)
"YL" (4.752917996678477e-02 -2.066770069731367e-08)
"YG" (3.000002500000005e-06 1.444645289609296e-13)
"freq" 8.912509381337440e-03
"loopGain" (-5.899331124287045e+03 1.851088263946178e-01)
"ZL" (3.133473236394819e+09 -1.558152250636870e+05)
"ZG" (3.333330555557851e+05 -1.801017748149093e-02)
"YL" (4.752917996678242e-02 -2.318954159037435e-08)
"YG" (3.000002500000008e-06 1.620918674862013e-13)
"freq" 9.999999999999981e-03
"loopGain" (-5.899331122771780e+03 2.076955192151857e-01)
"ZL" (3.133473234381210e+09 -1.748275578699040e+05)
"ZG" (3.333330555557848e+05 -2.020775149948877e-02)
"YL" (4.752917996677948e-02 -2.601909361120131e-08)
"YG" (3.000002500000009e-06 1.818700666117862e-13)
"freq" 1.122018454301961e-02
"loopGain" (-5.899331120886503e+03 2.330382053611118e-01)
"ZL" (3.133473231865123e+09 -1.961597460936603e+05)
"ZG" (3.333330555557842e+05 -2.267347010205015e-02)
"YL" (4.752917996677575e-02 -2.919390319597587e-08)
"YG" (3.000002500000012e-06 2.040615710235496e-13)
"freq" 1.258925411794165e-02
"loopGain" (-5.899331118511076e+03 2.614731668676545e-01)
"ZL" (3.133473228686266e+09 -2.200948548850415e+05)
"ZG" (3.333330555551105e+05 -2.544005183014742e-02)
"YL" (4.752917996677108e-02 -3.275609813898675e-08)
"YG" (3.000002500000014e-06 2.289608485022720e-13)
"freq" 1.412537544622751e-02
"loopGain" (-5.899331115503130e+03 2.933777183803568e-01)
"ZL" (3.133473224687953e+09 -2.469504885631950e+05)
"ZG" (3.333330555557827e+05 -2.854420768511176e-02)
"YL" (4.752917996676521e-02 -3.675294660286476e-08)
"YG" (3.000002500000017e-06 2.568982973321834e-13)
"freq" 1.584893192461110e-02
"loopGain" (-5.899331111722217e+03 3.291752138926045e-01)
"ZL" (3.133473219651375e+09 -2.770830050216566e+05)
"ZG" (3.333330555557816e+05 -3.202712778647643e-02)
"YL" (4.752917996675780e-02 -4.123748433838244e-08)
"YG" (3.000002500000021e-06 2.882446304854591e-13)
"freq" 1.778279410038919e-02
"loopGain" (-5.899331106959464e+03 3.693406643876895e-01)
"ZL" (3.133473213308273e+09 -3.108922443785004e+05)
"ZG" (3.333330555557801e+05 -3.593502841407060e-02)
"YL" (4.752917996674848e-02 -4.626921843664417e-08)
"YG" (3.000002500000027e-06 3.234157947581290e-13)
"freq" 1.995262314968875e-02
"loopGain" (-5.899331100996436e+03 4.144070409499310e-01)
"ZL" (3.133473205350646e+09 -3.488268346093923e+05)
"ZG" (3.333330555557784e+05 -4.031976503717601e-02)
"YL" (4.752917996673672e-02 -5.191491695203044e-08)
"YG" (3.000002500000034e-06 3.628784901313499e-13)
"freq" 2.238721138568334e-02
"loopGain" (-5.899331093452504e+03 4.649723469433998e-01)
"ZL" (3.133473195301338e+09 -3.913901445329341e+05)
"ZG" (3.333330555557763e+05 -4.523952044419816e-02)
"YL" (4.752917996672196e-02 -5.824949487371379e-08)
"YG" (3.000002500000042e-06 4.071563625965957e-13)
"freq" 2.511886431509574e-02
"loopGain" (-5.899331083961122e+03 5.217075531710391e-01)
"ZL" (3.133473182648645e+09 -4.391469632254017e+05)
"ZG" (3.333330555551006e+05 -5.075957670753380e-02)
"YL" (4.752917996670334e-02 -6.535700820204871e-08)
"YG" (3.000002500000052e-06 4.568369526198279e-13)
"freq" 2.818382931264447e-02
"loopGain" (-5.899331072001587e+03 5.853655012186172e-01)
"ZL" (3.133473166718847e+09 -4.927309943855684e+05)
"ZG" (3.333330555550970e+05 -5.695318179777325e-02)
"YL" (4.752917996667992e-02 -7.333176932062703e-08)
"YG" (3.000002500000066e-06 5.125794914464966e-13)
"freq" 3.162277660168371e-02
"loopGain" (-5.899331056988078e+03 6.567908932102874e-01)
"ZL" (3.133473146694193e+09 -5.528532651805994e+05)
"ZG" (3.333330555544196e+05 -6.390252089032367e-02)
"YL" (4.752917996665044e-02 -8.227959846430674e-08)
"YG" (3.000002500000084e-06 5.751236486996549e-13)
"freq" 3.548133892335745e-02
"loopGain" (-5.899331038050263e+03 7.369315004332113e-01)
"ZL" (3.133473121461360e+09 -6.203115610632149e+05)
"ZG" (3.333330555544142e+05 -7.169980771390502e-02)
"YL" (4.752917996661329e-02 -9.231922788943503e-08)
"YG" (3.000002500000105e-06 6.452993473464507e-13)
"freq" 3.981071705534961e-02
"loopGain" (-5.899331014207104e+03 8.268507396996085e-01)
"ZL" (3.133473089693529e+09 -6.960010118797994e+05)
"ZG" (3.333330555544071e+05 -8.044850742488559e-02)
"YL" (4.752917996656655e-02 -1.035838773787520e-07)
"YG" (3.000002500000132e-06 7.240377762716715e-13)
"freq" 4.466835921509617e-02
"loopGain" (-5.899330984208810e+03 9.277417841799865e-01)
"ZL" (3.133473049709498e+09 -7.809259695881745e+05)
"ZG" (3.333330555537254e+05 -9.026470978228003e-02)
"YL" (4.752917996650773e-02 -1.162230219869666e-07)
"YG" (3.000002500000166e-06 8.123837465884851e-13)
"freq" 5.011872336272707e-02
"loopGain" (-5.899330946426733e+03 1.040943396009358e+00)
"ZL" (3.133472999366621e+09 -8.762133352581523e+05)
"ZG" (3.333330555537142e+05 -1.012786701465871e-01)
"YL" (4.752917996643365e-02 -1.304043754839148e-07)
"YG" (3.000002500000209e-06 9.115095556471309e-13)
"freq" 5.623413251903472e-02
"loopGain" (-5.899330898876514e+03 1.167957690793816e+00)
"ZL" (3.133472935988401e+09 -9.831275121998274e+05)
"ZG" (3.333330555523544e+05 -1.136365365062534e-01)
"YL" (4.752917996634038e-02 -1.463161158143859e-07)
"YG" (3.000002500000264e-06 1.022730542708496e-12)
"freq" 6.309573444801911e-02
"loopGain" (-5.899330839010472e+03 1.310470069617394e+00)
"ZL" (3.133472856212605e+09 -1.103087183568632e+06)
"ZG" (3.333330555523367e+05 -1.275022910429173e-01)
"YL" (4.752917996622298e-02 -1.641693821051160e-07)
"YG" (3.000002500000332e-06 1.147522542696960e-12)
"freq" 7.079457843841354e-02
"loopGain" (-5.899330763632997e+03 1.470371583133082e+00)
"ZL" (3.133472755765759e+09 -1.237684137032178e+06)
"ZG" (3.333330555509689e+05 -1.430599229785986e-01)
"YL" (4.752917996607518e-02 -1.842010763527141e-07)
"YG" (3.000002500000418e-06 1.287541469633162e-12)
"freq" 7.943282347242786e-02
"loopGain" (-5.899330668746250e+03 1.649784024422118e+00)
"ZL" (3.133472629306056e+09 -1.388704386355742e+06)
"ZG" (3.333330555489223e+05 -1.605158727511583e-01)
"YL" (4.752917996588912e-02 -2.066770069692158e-07)
"YG" (3.000002500000525e-06 1.444645289607009e-12)
"freq" 8.912509381337422e-02
"loopGain" (-5.899330549301650e+03 1.851088083540040e+00)
"ZL" (3.133472470132440e+09 -1.558151870001139e+06)
"ZG" (3.333330555488871e+05 -1.801017714296197e-01)
"YL" (4.752917996565486e-02 -2.318954158982051e-07)
"YG" (3.000002500000662e-06 1.620918674858805e-12)
"freq" 9.999999999999962e-02
"loopGain" (-5.899330398919218e+03 2.076954937329313e+00)
"ZL" (3.133472269714598e+09 -1.748275041037398e+06)
"ZG" (3.333330555461511e+05 -2.020775096812228e-01)
"YL" (4.752917996535996e-02 -2.601909361041897e-07)
"YG" (3.000002500000833e-06 1.818700666113317e-12)
"freq" 1.122018454301959e-01
"loopGain" (-5.899330209606835e+03 2.330381693662037e+00)
"ZL" (3.133472017420004e+09 -1.961596701466985e+06)
"ZG" (3.333330555434038e+05 -2.267346933584009e-01)
"YL" (4.752917996498870e-02 -2.919390319487083e-07)
"YG" (3.000002500001049e-06 2.040615710229084e-12)
"freq" 1.258925411794162e-01
"loopGain" (-5.899329971260357e+03 2.614731160219430e+00)
"ZL" (3.133471699788606e+09 -2.200947476068483e+06)
"ZG" (3.333330555406419e+05 -2.544005082672616e-01)
"YL" (4.752917996452129e-02 -3.275609813742585e-07)
"YG" (3.000002500001321e-06 2.289608485013659e-12)
"freq" 1.412537544622748e-01
"loopGain" (-5.899329671207953e+03 2.933776465596437e+00)
"ZL" (3.133471299911865e+09 -2.469503370274224e+06)
"ZG" (3.333330555365165e+05 -2.854420618430889e-01)
"YL" (4.752917996393289e-02 -3.675294660065995e-07)
"YG" (3.000002500001662e-06 2.568982973309028e-12)
"freq" 1.584893192461107e-01
"loopGain" (-5.899329293476271e+03 3.291751124447056e+00)
"ZL" (3.133470796517953e+09 -2.770827909745017e+06)
"ZG" (3.333330555316948e+05 -3.202712568110782e-01)
"YL" (4.752917996319210e-02 -4.123748433526808e-07)
"YG" (3.000002500002092e-06 2.882446304836502e-12)
"freq" 1.778279410038915e-01
"loopGain" (-5.899328817935737e+03 3.693405210902397e+00)
"ZL" (3.133470162770339e+09 -3.108919420300426e+06)
"ZG" (3.333330555254988e+05 -3.593502544502404e-01)
"YL" (4.752917996225951e-02 -4.626921843224501e-07)
"YG" (3.000002500002635e-06 3.234157947555738e-12)
"freq" 1.995262314968871e-01
"loopGain" (-5.899328219256467e+03 4.144068385327177e+00)
"ZL" (3.133469364924992e+09 -3.488264075249689e+06)
"ZG" (3.333330555172477e+05 -4.031976079586262e-01)
"YL" (4.752917996108547e-02 -5.191491694581655e-07)
"YG" (3.000002500003316e-06 3.628784901277418e-12)
"freq" 2.238721138568329e-01
"loopGain" (-5.899327465567509e+03 4.649720610231202e+00)
"ZL" (3.133468360497022e+09 -3.913895412612488e+06)
"ZG" (3.333330555076054e+05 -4.523951449752022e-01)
"YL" (4.752917995960747e-02 -5.824949486493647e-07)
"YG" (3.000002500004175e-06 4.071563625914997e-12)
"freq" 2.511886431509568e-01
"loopGain" (-5.899326516712827e+03 5.217071492957696e+00)
"ZL" (3.133467095996036e+09 -4.391461110826617e+06)
"ZG" (3.333330554958867e+05 -5.075956850856491e-01)
"YL" (4.752917995774672e-02 -6.535700818965045e-07)
"YG" (3.000002500005257e-06 4.568369526126280e-12)
"freq" 2.818382931264440e-01
"loopGain" (-5.899325322210743e+03 5.853649307362475e+00)
"ZL" (3.133465504104361e+09 -4.927297907098293e+06)
"ZG" (3.333330554800587e+05 -5.695317013770659e-01)
"YL" (4.752917995540421e-02 -7.333176930311409e-07)
"YG" (3.000002500006616e-06 5.125794914363277e-12)
"freq" 3.162277660168364e-01
"loopGain" (-5.899323818397174e+03 6.567900873750393e+00)
"ZL" (3.133463500024793e+09 -5.528515649391374e+06)
"ZG" (3.333330554614478e+05 -6.390250468502527e-01)
"YL" (4.752917995245515e-02 -8.227959843956902e-07)
"YG" (3.000002500008330e-06 5.751236486852913e-12)
"freq" 3.548133892335737e-01
"loopGain" (-5.899321925220122e+03 7.369303621642377e+00)
"ZL" (3.133460977038535e+09 -6.203091594120251e+06)
"ZG" (3.333330554359934e+05 -7.169978454919600e-01)
"YL" (4.752917994874251e-02 -9.231922785449214e-07)
"YG" (3.000002500010486e-06 6.452993473261625e-12)
"freq" 3.981071705534953e-01
"loopGain" (-5.899319541847940e+03 8.268491318552780e+00)
"ZL" (3.133457800793197e+09 -6.959976194636822e+06)
"ZG" (3.333330554056845e+05 -8.044847478352272e-01)
"YL" (4.752917994406856e-02 -1.035838773293940e-06)
"YG" (3.000002500013201e-06 7.240377762430123e-12)
"freq" 4.466835921509609e-01
"loopGain" (-5.899316541366803e+03 9.277395130390483e+00)
"ZL" (3.133453802134057e+09 -7.809211776716400e+06)
"ZG" (3.333330553657735e+05 -9.026466349511379e-01)
"YL" (4.752917993818440e-02 -1.162230219172467e-06)
"YG" (3.000002500016619e-06 8.123837465480064e-12)
"freq" 5.011872336272697e-01
"loopGain" (-5.899312763991677e+03 1.040940187944551e+01)
"ZL" (3.133448768153931e+09 -8.762065665126653e+06)
"ZG" (3.333330553168863e+05 -1.012786047077877e+00)
"YL" (4.752917993077669e-02 -1.304043753854327e-06)
"YG" (3.000002500020922e-06 9.115095555899545e-12)
"freq" 5.623413251903461e-01
"loopGain" (-5.899308008550729e+03 1.167953159279656e+01)
"ZL" (3.133442430761953e+09 -9.831179511126632e+06)
"ZG" (3.333330552549265e+05 -1.136364442958253e+00)
"YL" (4.752917992145095e-02 -1.463161156752763e-06)
"YG" (3.000002500026340e-06 1.022730542627732e-11)
"freq" 6.309573444801898e-01
"loopGain" (-5.899302021821180e+03 1.310463668687370e+01)
"ZL" (3.133434452485937e+09 -1.103073678194216e+07)
"ZG" (3.333330551771284e+05 -1.275021605179010e+00)
"YL" (4.752917990971054e-02 -1.641693819086187e-06)
"YG" (3.000002500033159e-06 1.147522542582874e-11)
"freq" 7.079457843841340e-01
"loopGain" (-5.899294485007193e+03 1.470362541600390e+01)
"ZL" (3.133424408511754e+09 -1.237665060258917e+07)
"ZG" (3.333330550786878e+05 -1.430597386373760e+00)
"YL" (4.752917989493021e-02 -1.842010760751542e-06)
"YG" (3.000002500041745e-06 1.287541469472014e-11)
"freq" 7.943282347242770e-01
"loopGain" (-5.899284996730940e+03 1.649771252935304e+01)
"ZL" (3.133411763963170e+09 -1.388677439803389e+07)
"ZG" (3.333330549547772e+05 -1.605156125520137e+00)
"YL" (4.752917987632291e-02 -2.066770065771522e-06)
"YG" (3.000002500052553e-06 1.444645289379386e-11)
"freq" 8.912509381337405e-01
"loopGain" (-5.899273051760844e+03 1.851070043373793e+01)
"ZL" (3.133395845594611e+09 -1.558113807175675e+07)
"ZG" (3.333330547998653e+05 -1.801014033723198e+00)
"YL" (4.752917985289769e-02 -2.318954153444006e-06)
"YG" (3.000002500066160e-06 1.620918674537281e-11)
"freq" 9.999999999999942e-01
"loopGain" (-5.899258013980238e+03 2.076929454975755e+01)
"ZL" (3.133375805755184e+09 -1.748221276209915e+07)
"ZG" (3.333330546036731e+05 -2.020769900613468e+00)
"YL" (4.752917982340708e-02 -2.601909353219204e-06)
"YG" (3.000002500083292e-06 1.818700665659147e-11)
"freq" 1.122018454301957e+00
"loopGain" (-5.899239082663519e+03 2.330345698997866e+01)
"ZL" (3.133350577492711e+09 -1.961520757266530e+07)
"ZG" (3.333330543585651e+05 -2.267339604252754e+00)
"YL" (4.752917978628061e-02 -2.919390308437237e-06)
"YG" (3.000002500104858e-06 2.040615709587546e-11)
"freq" 1.258925411794160e+00
"loopGain" (-5.899215249728581e+03 2.614680316634225e+01)
"ZL" (3.133318817544240e+09 -2.200840203134566e+07)
"ZG" (3.333330540474259e+05 -2.543994718391404e+00)
"YL" (4.752917973954114e-02 -3.275609798134263e-06)
"YG" (3.000002500132008e-06 2.289608484107469e-11)
"freq" 1.412537544622746e+00
"loopGain" (-5.899185246080566e+03 2.933704647474867e+01)
"ZL" (3.133278835046773e+09 -2.469351845177601e+07)
"ZG" (3.333330536577751e+05 -2.854405987327673e+00)
"YL" (4.752917968069968e-02 -3.675294638018655e-06)
"YG" (3.000002500166189e-06 2.568982972028991e-11)
"freq" 1.584893192461104e+00
"loopGain" (-5.899147474181814e+03 3.291649679302012e+01)
"ZL" (3.133228501520668e+09 -2.770613878299813e+07)
"ZG" (3.333330531656009e+05 -3.202691893097033e+00)
"YL" (4.752917960662262e-02 -4.123748402384115e-06)
"YG" (3.000002500209218e-06 2.882446303028415e-11)
