HEADER
"PSFversion" "1.00"
"simulator" "spectre"
"version" "25.1.0.235.isr5"
"date" "2:15:01 PM, Fri Jul 17, 2026"
"design" "// Point Netlist Generated on: Jul 17 08:02:37 2026"
"analysis type" "ac"
"analysis name" "ac"
"analysis description" "AC Analysis `ac': freq = (1 mHz -> 10 GHz)"
"xVecSorted" "ascending"
"tolerance.relative" 1.000000000000000e-03
"start" 1.000000000000000e-03
"stop" 1.000000000000000e+10
"operating point producer" "ac"
TYPE
"sweep" FLOAT DOUBLE PROP(
"key" "sweep"
)
"V" COMPLEX DOUBLE PROP(
"units" "V"
"key" "node"
"tolerance" 1.000000000000000e-06
)
"I" COMPLEX DOUBLE PROP(
"units" "A"
"key" "branch"
"tolerance" 1.000000000000000e-12
)
"MMF" COMPLEX DOUBLE PROP(
"units" "A*turn"
"key" "node"
"tolerance" 1.000000000000000e-12
)
"Wb" COMPLEX DOUBLE PROP(
"units" "Wb"
"key" "node"
"tolerance" 1.000000000000000e-09
)
"Temp" COMPLEX DOUBLE PROP(
"units" "C"
"key" "node"
"tolerance" 1.000000000000000e-04
)
"Pwr" COMPLEX DOUBLE PROP(
"units" "W"
"key" "node"
"tolerance" 1.000000000000000e-09
)
"U" COMPLEX DOUBLE PROP(
"units" ""
"key" "node"
"tolerance" 1.000000000000000e-06
)
"V/Sec" COMPLEX DOUBLE PROP(
"units" "V/s"
"key" "node"
"tolerance" 9.999999999999999e-05
)
"I/Sec" COMPLEX DOUBLE PROP(
"units" "A/s"
"key" "node"
"tolerance" 1.000000000000000e-06
)
"1/Sec" COMPLEX DOUBLE PROP(
"units" "1/s"
"key" "node"
"tolerance" 9.999999999999999e-05
)
"HOD" COMPLEX DOUBLE PROP(
"units" ""
"key" "node"
"tolerance" 1.000000000000000e-02
)
"Q" COMPLEX DOUBLE PROP(
"units" "Coul"
"key" "node"
"tolerance" 1.000000000000000e-15
)
"Efield" COMPLEX DOUBLE PROP(
"units" "V/m"
"key" "node"
"tolerance" 1.000000000000000e-06
"sigtype" "optical"
)
SWEEP
"freq" "sweep" PROP(
"sweep_direction" 0
"units" "Hz"
"plot" 0
"grid" 3
)
TRACE
"vdd!" "V"
"vout" "V"
"vin_p" "V"
"vin_n" "V"
"vbn" "V"
"vin_dm" "V"
"vin_cm" "V"
"net1" "V"
"I0.tail" "V"
"I0.mirr" "V"
"VINC:p" "I"
"VIND:p" "I"
"VSUP:p" "I"
VALUE
"freq" 1.000000000000000e-03
"vdd!" (0.000000000000000e+00 0.000000000000000e+00)
"vout" (2.024473069430566e+02 -5.351169866529892e-08)
"vin_p" (5.000000000000000e-01 0.000000000000000e+00)
"vin_n" (-5.000000000000000e-01 -0.000000000000000e+00)
"vbn" (2.084173697375256e-23 7.551695225893983e-14)
"vin_dm" (1.000000000000000e+00 0.000000000000000e+00)
"vin_cm" (0.000000000000000e+00 0.000000000000000e+00)
"net1" (-5.000000000000000e-01 0.000000000000000e+00)
"I0.tail" (3.390049169125865e-01 -9.157538923545164e-11)
"I0.mirr" (-1.162163235620626e-01 -1.158125479163995e-10)
"VINC:p" (3.827022997604041e-24 1.440164530985448e-14)
"VIND:p" (-2.500000000001697e-12 -7.762488330606164e-15)
"VSUP:p" (-3.091198656750926e-06 -3.596855525756683e-14)
"freq" 1.122018454301963e-03
"vdd!" (0.000000000000000e+00 0.000000000000000e+00)
"vout" (2.024473069430566e+02 -6.004111342351114e-08)
"vin_p" (5.000000000000000e-01 0.000000000000000e+00)
"vin_n" (-5.000000000000000e-01 -0.000000000000000e+00)
"vbn" (2.623819230218716e-23 8.473141404717082e-14)
"vin_dm" (1.000000000000000e+00 0.000000000000000e+00)
"vin_cm" (0.000000000000000e+00 0.000000000000000e+00)
"net1" (-5.000000000000000e-01 0.000000000000000e+00)
"I0.tail" (3.390049169125865e-01 -1.027492766820621e-10)
"I0.mirr" (-1.162163235620626e-01 -1.299438160019306e-10)
"VINC:p" (4.817882781659566e-24 1.615891180996804e-14)
"VIND:p" (-2.500000000002136e-12 -8.709655158243755e-15)
"VSUP:p" (-3.091198656750926e-06 -4.035738277356989e-14)
"freq" 1.258925411794167e-03
"vdd!" (0.000000000000000e+00 0.000000000000000e+00)
"vout" (2.024473069430566e+02 -6.736723727801683e-08)
"vin_p" (5.000000000000000e-01 0.000000000000000e+00)
"vin_n" (-5.000000000000000e-01 -0.000000000000000e+00)
"vbn" (3.303192704876552e-23 9.507021022002627e-14)
"vin_dm" (1.000000000000000e+00 0.000000000000000e+00)
"vin_cm" (0.000000000000000e+00 0.000000000000000e+00)
"net1" (-5.000000000000000e-01 0.000000000000000e+00)
"I0.tail" (3.390049169125865e-01 -1.152865846034521e-10)
"I0.mirr" (-1.162163235620626e-01 -1.457993595765850e-10)
"VINC:p" (6.065418971612283e-24 1.813059725222208e-14)
"VIND:p" (-2.500000000002689e-12 -9.772393818155779e-15)
"VSUP:p" (-3.091198656750926e-06 -4.528172823927359e-14)
"freq" 1.412537544622754e-03
"vdd!" (0.000000000000000e+00 0.000000000000000e+00)
"vout" (2.024473069430566e+02 -7.558728344127406e-08)
"vin_p" (5.000000000000000e-01 0.000000000000000e+00)
"vin_n" (-5.000000000000000e-01 -0.000000000000000e+00)
"vbn" (4.158473236222203e-23 1.066705303212366e-13)
"vin_dm" (1.000000000000000e+00 0.000000000000000e+00)
"vin_cm" (0.000000000000000e+00 0.000000000000000e+00)
"net1" (-5.000000000000000e-01 0.000000000000000e+00)
"I0.tail" (3.390049169125865e-01 -1.293536754585179e-10)
"I0.mirr" (-1.162163235620626e-01 -1.635895720703360e-10)
"VINC:p" (7.635769665755921e-24 2.034286470450965e-14)
"VIND:p" (-2.500000000003386e-12 -1.096480620667721e-14)
"VSUP:p" (-3.091198656750926e-06 -5.080693472715132e-14)
"freq" 1.584893192461113e-03
"vdd!" (0.000000000000000e+00 0.000000000000000e+00)
"vout" (2.024473069430566e+02 -8.481032693166268e-08)
"vin_p" (5.000000000000000e-01 0.000000000000000e+00)
"vin_n" (-5.000000000000000e-01 -0.000000000000000e+00)
"vbn" (5.235207631346056e-23 1.196863035506046e-13)
"vin_dm" (1.000000000000000e+00 0.000000000000000e+00)
"vin_cm" (0.000000000000000e+00 0.000000000000000e+00)
"net1" (-5.000000000000000e-01 0.000000000000000e+00)
"I0.tail" (3.390049169125865e-01 -1.451372109962440e-10)
"I0.mirr" (-1.162163235620626e-01 -1.835505187942780e-10)
"VINC:p" (9.612945395052898e-24 2.282506961182787e-14)
"VIND:p" (-2.500000000004262e-12 -1.230271491173653e-14)
"VSUP:p" (-3.091198656750926e-06 -5.700631837037904e-14)
"freq" 1.778279410038922e-03
"vdd!" (0.000000000000000e+00 0.000000000000000e+00)
"vout" (2.024473069430566e+02 -9.515875193270834e-08)
"vin_p" (5.000000000000000e-01 0.000000000000000e+00)
"vin_n" (-5.000000000000000e-01 -0.000000000000000e+00)
"vbn" (6.590735923120300e-23 1.342902413109650e-13)
"vin_dm" (1.000000000000000e+00 0.000000000000000e+00)
"vin_cm" (0.000000000000000e+00 0.000000000000000e+00)
"net1" (-5.000000000000000e-01 0.000000000000000e+00)
"I0.tail" (3.390049169125865e-01 -1.628466291437036e-10)
"I0.mirr" (-1.162163235620626e-01 -2.059470693838793e-10)
"VINC:p" (1.210206029740210e-23 2.561014932519783e-14)
"VIND:p" (-2.500000000005366e-12 -1.380387316898434e-14)
"VSUP:p" (-3.091198656750926e-06 -6.396214122337830e-14)
"freq" 1.995262314968878e-03
"vdd!" (0.000000000000000e+00 0.000000000000000e+00)
"vout" (2.024473069430566e+02 -1.067698757568413e-07)
"vin_p" (5.000000000000000e-01 0.000000000000000e+00)
"vin_n" (-5.000000000000000e-01 -0.000000000000000e+00)
"vbn" (8.297244936040830e-23 1.506761289835666e-13)
"vin_dm" (1.000000000000000e+00 0.000000000000000e+00)
"vin_cm" (0.000000000000000e+00 0.000000000000000e+00)
"net1" (-5.000000000000000e-01 0.000000000000000e+00)
"I0.tail" (3.390049169125865e-01 -1.827169231201033e-10)
"I0.mirr" (-1.162163235620626e-01 -2.310764124581193e-10)
"VINC:p" (1.523549154358686e-23 2.873506016030093e-14)
"VIND:p" (-2.500000000006755e-12 -1.548820043644416e-14)
"VSUP:p" (-3.091198656750926e-06 -7.176670282929878e-14)
"freq" 2.238721138568338e-03
"vdd!" (0.000000000000000e+00 0.000000000000000e+00)
"vout" (2.024473069430566e+02 -1.197977709627039e-07)
"vin_p" (5.000000000000000e-01 0.000000000000000e+00)
"vin_n" (-5.000000000000000e-01 -0.000000000000000e+00)
"vbn" (1.044561249786227e-22 1.690613973423446e-13)
"vin_dm" (1.000000000000000e+00 0.000000000000000e+00)
"vin_cm" (0.000000000000000e+00 0.000000000000000e+00)
"net1" (-5.000000000000000e-01 0.000000000000000e+00)
"I0.tail" (3.390049169125865e-01 -2.050117596540290e-10)
"I0.mirr" (-1.162163235620626e-01 -2.592719991319021e-10)
"VINC:p" (1.918025045357333e-23 3.224126778533479e-14)
"VIND:p" (-2.500000000008504e-12 -1.737804671361807e-14)
"VSUP:p" (-3.091198656750926e-06 -8.052356497887821e-14)
"freq" 2.511886431509578e-03
"vdd!" (0.000000000000000e+00 0.000000000000000e+00)
"vout" (2.024473069430566e+02 -1.344153098043936e-07)
"vin_p" (5.000000000000000e-01 0.000000000000000e+00)
"vin_n" (-5.000000000000000e-01 -0.000000000000000e+00)
"vbn" (1.315024701531356e-22 1.896900077281875e-13)
"vin_dm" (1.000000000000000e+00 0.000000000000000e+00)
"vin_cm" (0.000000000000000e+00 0.000000000000000e+00)
"net1" (-5.000000000000000e-01 0.000000000000000e+00)
"I0.tail" (3.390049169125865e-01 -2.300269776807393e-10)
"I0.mirr" (-1.162163235620626e-01 -2.909079677097568e-10)
"VINC:p" (2.414666627735515e-23 3.617529744523702e-14)
"VIND:p" (-2.500000000010706e-12 -1.949848911240105e-14)
"VSUP:p" (-3.091198656750926e-06 -9.034892591248465e-14)
"freq" 2.818382931264451e-03
"vdd!" (0.000000000000000e+00 0.000000000000000e+00)
"vout" (2.024473069430566e+02 -1.508164581412452e-07)
"vin_p" (5.000000000000000e-01 0.000000000000000e+00)
"vin_n" (-5.000000000000000e-01 -0.000000000000000e+00)
"vbn" (1.655518013894863e-22 2.128356892677085e-13)
"vin_dm" (1.000000000000000e+00 0.000000000000000e+00)
"vin_cm" (0.000000000000000e+00 0.000000000000000e+00)
"net1" (-5.000000000000000e-01 0.000000000000000e+00)
"I0.tail" (3.390049169125865e-01 -2.580945139450953e-10)
"I0.mirr" (-1.162163235620626e-01 -3.264041082738267e-10)
"VINC:p" (3.039878653712790e-23 4.058935132341860e-14)
"VIND:p" (-2.500000000013479e-12 -2.187766461511989e-14)
"VSUP:p" (-3.091198656750922e-06 -1.013731622001686e-13)
"freq" 3.162277660168376e-03
"vdd!" (0.000000000000000e+00 0.000000000000000e+00)
"vout" (2.024473069430566e+02 -1.692188492469367e-07)
"vin_p" (5.000000000000000e-01 0.000000000000000e+00)
"vin_n" (-5.000000000000000e-01 -0.000000000000000e+00)
"vbn" (2.084173697375252e-22 2.388055710924472e-13)
"vin_dm" (1.000000000000000e+00 0.000000000000000e+00)
"vin_cm" (0.000000000000000e+00 0.000000000000000e+00)
"net1" (-5.000000000000000e-01 0.000000000000000e+00)
"I0.tail" (3.390049169125865e-01 -2.895868076004923e-10)
"I0.mirr" (-1.162163235620626e-01 -3.662314330432097e-10)
"VINC:p" (3.826992705345280e-23 4.554200123302148e-14)
"VIND:p" (-2.500000000016969e-12 -2.454714343519357e-14)
"VSUP:p" (-3.091198656750922e-06 -1.137425587595354e-13)
"freq" 3.548133892335751e-03
"vdd!" (0.000000000000000e+00 0.000000000000000e+00)
"vout" (2.024473069430566e+02 -1.898666716708049e-07)
"vin_p" (5.000000000000000e-01 0.000000000000000e+00)
"vin_n" (-5.000000000000000e-01 -0.000000000000000e+00)
"vbn" (2.623819230218712e-22 2.679442577558452e-13)
"vin_dm" (1.000000000000000e+00 0.000000000000000e+00)
"vin_cm" (0.000000000000000e+00 0.000000000000000e+00)
"net1" (-5.000000000000000e-01 0.000000000000000e+00)
"I0.tail" (3.390049169125865e-01 -3.249217422501446e-10)
"I0.mirr" (-1.162163235620626e-01 -4.109184264199353e-10)
"VINC:p" (4.817882781659566e-23 5.109896582929289e-14)
"VIND:p" (-2.500000000021362e-12 -2.754234793468449e-14)
"VSUP:p" (-3.091198656750922e-06 -1.276212499677242e-13)
"freq" 3.981071705534968e-03
"vdd!" (0.000000000000000e+00 0.000000000000000e+00)
"vout" (2.024473069430566e+02 -2.130339094715349e-07)
"vin_p" (5.000000000000000e-01 0.000000000000000e+00)
"vin_n" (-5.000000000000000e-01 -0.000000000000000e+00)
"vbn" (3.303192704876546e-22 3.006384019263003e-13)
"vin_dm" (1.000000000000000e+00 0.000000000000000e+00)
"vin_cm" (0.000000000000000e+00 0.000000000000000e+00)
"net1" (-5.000000000000000e-01 0.000000000000000e+00)
"I0.tail" (3.390049169125865e-01 -3.645681910086081e-10)
"I0.mirr" (-1.162163235620626e-01 -4.610580576558909e-10)
"VINC:p" (6.065368484514348e-23 5.733398265621205e-14)
"VIND:p" (-2.500000000026893e-12 -3.090302265752156e-14)
"VSUP:p" (-3.091198656750922e-06 -1.431933976248703e-13)
"freq" 4.466835921509626e-03
"vdd!" (0.000000000000000e+00 0.000000000000000e+00)
"vout" (2.024473069430566e+02 -2.390279778191559e-07)
"vin_p" (5.000000000000000e-01 0.000000000000000e+00)
"vin_n" (-5.000000000000000e-01 -0.000000000000000e+00)
"vbn" (4.158473236222194e-22 3.373218350331600e-13)
"vin_dm" (1.000000000000000e+00 0.000000000000000e+00)
"vin_cm" (0.000000000000000e+00 0.000000000000000e+00)
"net1" (-5.000000000000000e-01 0.000000000000000e+00)
"I0.tail" (3.390049169125865e-01 -4.090522381631413e-10)
"I0.mirr" (-1.162163235620626e-01 -5.173156491945281e-10)
"VINC:p" (7.635840347693029e-23 6.432978659889861e-14)
"VIND:p" (-2.500000000033856e-12 -3.467376171545089e-14)
"VSUP:p" (-3.091198656750922e-06 -1.606656346693034e-13)
"freq" 5.011872336272717e-03
"vdd!" (0.000000000000000e+00 0.000000000000000e+00)
"vout" (2.024473069430566e+02 -2.681938022075733e-07)
"vin_p" (5.000000000000000e-01 0.000000000000000e+00)
"vin_n" (-5.000000000000000e-01 -0.000000000000000e+00)
"vbn" (5.235207631346047e-22 3.784813239462080e-13)
"vin_dm" (1.000000000000000e+00 0.000000000000000e+00)
"vin_cm" (0.000000000000000e+00 0.000000000000000e+00)
"net1" (-5.000000000000000e-01 0.000000000000000e+00)
"I0.tail" (3.390049169125865e-01 -4.589641599925664e-10)
"I0.mirr" (-1.162163235620626e-01 -5.804377050954610e-10)
"VINC:p" (9.612945395052898e-23 7.217920772527137e-14)
"VIND:p" (-2.500000000042623e-12 -3.890460052480481e-14)
"VSUP:p" (-3.091198656750922e-06 -1.802698070710957e-13)
"freq" 5.623413251903483e-03
"vdd!" (0.000000000000000e+00 0.000000000000000e+00)
"vout" (2.024473069430566e+02 -3.009183954063079e-07)
"vin_p" (5.000000000000000e-01 0.000000000000000e+00)
"vin_n" (-5.000000000000000e-01 -0.000000000000000e+00)
"vbn" (6.590735923120287e-22 4.246630300762848e-13)
"vin_dm" (1.000000000000000e+00 0.000000000000000e+00)
"vin_cm" (0.000000000000000e+00 0.000000000000000e+00)
"net1" (-5.000000000000000e-01 0.000000000000000e+00)
"I0.tail" (3.390049169125865e-01 -5.149662573748584e-10)
"I0.mirr" (-1.162163235620626e-01 -6.512618166897880e-10)
"VINC:p" (1.210198961546499e-22 8.098640308464932e-14)
"VIND:p" (-2.500000000053660e-12 -4.365167974607683e-14)
"VSUP:p" (-3.091198656750922e-06 -2.022660502872241e-13)
"freq" 6.309573444801923e-03
"vdd!" (0.000000000000000e+00 0.000000000000000e+00)
"vout" (2.024473069430566e+02 -3.376359928848126e-07)
"vin_p" (5.000000000000000e-01 0.000000000000000e+00)
"vin_n" (-5.000000000000000e-01 -0.000000000000000e+00)
"vbn" (8.297244936040816e-22 4.764797566053813e-13)
"vin_dm" (1.000000000000000e+00 0.000000000000000e+00)
"vin_cm" (0.000000000000000e+00 0.000000000000000e+00)
"net1" (-5.000000000000000e-01 0.000000000000000e+00)
"I0.tail" (3.390049169125865e-01 -5.778016441174055e-10)
"I0.mirr" (-1.162163235620626e-01 -7.307277769081644e-10)
"VINC:p" (1.523550164100645e-22 9.086823880851398e-14)
"VIND:p" (-2.500000000067553e-12 -4.897799023637745e-14)
"VSUP:p" (-3.091198656750922e-06 -2.269462411010341e-13)
"freq" 7.079457843841368e-03
"vdd!" (0.000000000000000e+00 0.000000000000000e+00)
"vout" (2.024473069430566e+02 -3.788338148533261e-07)
"vin_p" (5.000000000000000e-01 0.000000000000000e+00)
"vin_n" (-5.000000000000000e-01 -0.000000000000000e+00)
"vbn" (1.044561249786225e-21 5.346190800125457e-13)
"vin_dm" (1.000000000000000e+00 0.000000000000000e+00)
"vin_cm" (0.000000000000000e+00 0.000000000000000e+00)
"net1" (-5.000000000000000e-01 0.000000000000000e+00)
"I0.tail" (3.390049169125865e-01 -6.483041076257446e-10)
"I0.mirr" (-1.162163235620626e-01 -8.198900507620089e-10)
"VINC:p" (1.918036152518878e-22 1.019558408530705e-13)
"VIND:p" (-2.500000000085044e-12 -5.495420889983688e-14)
"VSUP:p" (-3.091198656750922e-06 -2.546378706498233e-13)
"freq" 7.943282347242802e-03
"vdd!" (0.000000000000000e+00 0.000000000000000e+00)
"vout" (2.024473069430566e+02 -4.250585313790451e-07)
"vin_p" (5.000000000000000e-01 0.000000000000000e+00)
"vin_n" (-5.000000000000000e-01 -0.000000000000000e+00)
"vbn" (1.315024701531353e-21 5.998524737960142e-13)
"vin_dm" (1.000000000000000e+00 0.000000000000000e+00)
"vin_cm" (0.000000000000000e+00 0.000000000000000e+00)
"net1" (-5.000000000000000e-01 0.000000000000000e+00)
"I0.tail" (3.390049169125865e-01 -7.274091727558516e-10)
"I0.mirr" (-1.162163235620626e-01 -9.199317674535473e-10)
"VINC:p" (2.414663598509639e-22 1.143963349610192e-13)
"VIND:p" (-2.500000000107064e-12 -6.165963652718218e-14)
"VSUP:p" (-3.091198656750922e-06 -2.857083900332580e-13)
"freq" 8.912509381337440e-03
"vdd!" (0.000000000000000e+00 0.000000000000000e+00)
"vout" (2.024473069430566e+02 -4.769235163657787e-07)
"vin_p" (5.000000000000000e-01 0.000000000000000e+00)
"vin_n" (-5.000000000000000e-01 -0.000000000000000e+00)
"vbn" (1.655518013894860e-21 6.730455454578128e-13)
"vin_dm" (1.000000000000000e+00 0.000000000000000e+00)
"vin_cm" (0.000000000000000e+00 0.000000000000000e+00)
"net1" (-5.000000000000000e-01 0.000000000000000e+00)
"I0.tail" (3.390049169125865e-01 -8.161665156605903e-10)
"I0.mirr" (-1.162163235620626e-01 -1.032180419781503e-09)
"VINC:p" (3.039880673196707e-22 1.283547989307724e-13)
"VIND:p" (-2.500000000134786e-12 -6.918325006904983e-14)
"VSUP:p" (-3.091198656750922e-06 -3.205700861662187e-13)
"freq" 9.999999999999981e-03
"vdd!" (0.000000000000000e+00 0.000000000000000e+00)
"vout" (2.024473069430566e+02 -5.351169866529882e-07)
"vin_p" (5.000000000000000e-01 0.000000000000000e+00)
"vin_n" (-5.000000000000000e-01 -0.000000000000000e+00)
"vbn" (2.084173697375248e-21 7.551695225893968e-13)
"vin_dm" (1.000000000000000e+00 0.000000000000000e+00)
"vin_cm" (0.000000000000000e+00 0.000000000000000e+00)
"net1" (-5.000000000000000e-01 0.000000000000000e+00)
"I0.tail" (3.390049169125865e-01 -9.157538923545146e-10)
"I0.mirr" (-1.162163235620626e-01 -1.158125479163993e-09)
"VINC:p" (3.826983617667652e-22 1.440164530985445e-13)
"VIND:p" (-2.500000000169686e-12 -7.762488330606147e-14)
"VSUP:p" (-3.091198656750922e-06 -3.596855525756676e-13)
"freq" 1.122018454301961e-02
"vdd!" (0.000000000000000e+00 0.000000000000000e+00)
"vout" (2.024473069430566e+02 -6.004111342351102e-07)
"vin_p" (5.000000000000000e-01 0.000000000000000e+00)
"vin_n" (-5.000000000000000e-01 -0.000000000000000e+00)
"vbn" (2.623819230218706e-21 8.473141404717066e-13)
"vin_dm" (1.000000000000000e+00 0.000000000000000e+00)
"vin_cm" (0.000000000000000e+00 0.000000000000000e+00)
"net1" (-5.000000000000000e-01 0.000000000000000e+00)
"I0.tail" (3.390049169125865e-01 -1.027492766820619e-09)
"I0.mirr" (-1.162163235620626e-01 -1.299438160019304e-09)
"VINC:p" (4.817887830369359e-22 1.615891180996801e-13)
"VIND:p" (-2.500000000213622e-12 -8.709655158243736e-14)
"VSUP:p" (-3.091198656750922e-06 -4.035738277356983e-13)
"freq" 1.258925411794165e-02
"vdd!" (0.000000000000000e+00 0.000000000000000e+00)
"vout" (2.024473069430566e+02 -6.736723727801669e-07)
"vin_p" (5.000000000000000e-01 0.000000000000000e+00)
"vin_n" (-5.000000000000000e-01 -0.000000000000000e+00)
"vbn" (3.303192704876540e-21 9.507021022002610e-13)
"vin_dm" (1.000000000000000e+00 0.000000000000000e+00)
"vin_cm" (0.000000000000000e+00 0.000000000000000e+00)
"net1" (-5.000000000000000e-01 0.000000000000000e+00)
"I0.tail" (3.390049169125865e-01 -1.152865846034519e-09)
"I0.mirr" (-1.162163235620626e-01 -1.457993595765847e-09)
"VINC:p" (6.065360406578679e-22 1.813059725222205e-13)
"VIND:p" (-2.500000000268934e-12 -9.772393818155761e-14)
"VSUP:p" (-3.091198656750922e-06 -4.528172823927348e-13)
"freq" 1.412537544622751e-02
"vdd!" (0.000000000000000e+00 0.000000000000000e+00)
"vout" (2.024473069430566e+02 -7.558728344127390e-07)
"vin_p" (5.000000000000000e-01 0.000000000000000e+00)
"vin_n" (-5.000000000000000e-01 -0.000000000000000e+00)
"vbn" (4.158473236222185e-21 1.066705303212364e-12)
"vin_dm" (1.000000000000000e+00 0.000000000000000e+00)
"vin_cm" (0.000000000000000e+00 0.000000000000000e+00)
"net1" (-5.000000000000000e-01 0.000000000000000e+00)
"I0.tail" (3.390049169125865e-01 -1.293536754585176e-09)
"I0.mirr" (-1.162163235620626e-01 -1.635895720703357e-09)
"VINC:p" (7.635836308725194e-22 2.034286470450961e-13)
"VIND:p" (-2.500000000338568e-12 -1.096480620667719e-13)
"VSUP:p" (-3.091198656750922e-06 -5.080693472715119e-13)
"freq" 1.584893192461110e-02
"vdd!" (0.000000000000000e+00 0.000000000000000e+00)
"vout" (2.024473069430566e+02 -8.481032693166254e-07)
