HEADER
"PSFversion" "1.00"
"simulator" "spectre"
"version" "25.1.0.235.isr5"
"date" "2:14:59 PM, Fri Jul 17, 2026"
"design" "// Point Netlist Generated on: Jul 17 08:06:02 2026"
"analysis type" "ac"
"analysis name" "ac"
"analysis description" "AC Analysis `ac': freq = (1 mHz -> 10 GHz)"
"xVecSorted" "ascending"
"tolerance.relative" 1.000000000000000e-03
"start" 1.000000000000000e-03
"stop" 1.000000000000000e+10
"operating point producer" "ac"
TYPE
"sweep" FLOAT DOUBLE PROP(
"key" "sweep"
)
"V" COMPLEX DOUBLE PROP(
"units" "V"
"key" "node"
"tolerance" 1.000000000000000e-06
)
"I" COMPLEX DOUBLE PROP(
"units" "A"
"key" "branch"
"tolerance" 1.000000000000000e-12
)
"MMF" COMPLEX DOUBLE PROP(
"units" "A*turn"
"key" "node"
"tolerance" 1.000000000000000e-12
)
"Wb" COMPLEX DOUBLE PROP(
"units" "Wb"
"key" "node"
"tolerance" 1.000000000000000e-09
)
"Temp" COMPLEX DOUBLE PROP(
"units" "C"
"key" "node"
"tolerance" 1.000000000000000e-04
)
"Pwr" COMPLEX DOUBLE PROP(
"units" "W"
"key" "node"
"tolerance" 1.000000000000000e-09
)
"U" COMPLEX DOUBLE PROP(
"units" ""
"key" "node"
"tolerance" 1.000000000000000e-06
)
"V/Sec" COMPLEX DOUBLE PROP(
"units" "V/s"
"key" "node"
"tolerance" 9.999999999999999e-05
)
"I/Sec" COMPLEX DOUBLE PROP(
"units" "A/s"
"key" "node"
"tolerance" 1.000000000000000e-06
)
"1/Sec" COMPLEX DOUBLE PROP(
"units" "1/s"
"key" "node"
"tolerance" 9.999999999999999e-05
)
"HOD" COMPLEX DOUBLE PROP(
"units" ""
"key" "node"
"tolerance" 1.000000000000000e-02
)
"Q" COMPLEX DOUBLE PROP(
"units" "Coul"
"key" "node"
"tolerance" 1.000000000000000e-15
)
"Efield" COMPLEX DOUBLE PROP(
"units" "V/m"
"key" "node"
"tolerance" 1.000000000000000e-06
"sigtype" "optical"
)
SWEEP
"freq" "sweep" PROP(
"sweep_direction" 0
"units" "Hz"
"plot" 0
"grid" 3
)
TRACE
"vdd!" "V"
"vout" "V"
"vin_dm" "V"
"vin_cm" "V"
"vin_p" "V"
"net1" "V"
"vbn" "V"
"vin_n" "V"
"I0.tail" "V"
"I0.outd" "V"
"I0.mirr" "V"
"I0.net1" "V"
"VINC:p" "I"
"VIND:p" "I"
"VSUP:p" "I"
VALUE
"freq" 1.000000000000000e-03
"vdd!" (0.000000000000000e+00 0.000000000000000e+00)
"vout" (1.878492409265566e+04 -1.901850407783585e-04)
"vin_dm" (1.000000000000000e+00 0.000000000000000e+00)
"vin_cm" (0.000000000000000e+00 0.000000000000000e+00)
"vin_p" (5.000000000000000e-01 0.000000000000000e+00)
"net1" (-5.000000000000000e-01 0.000000000000000e+00)
"vbn" (5.776639512689407e-17 5.698523916222927e-09)
"vin_n" (-5.000000000000000e-01 -0.000000000000000e+00)
"I0.tail" (-3.559456012033622e-01 -2.785369700938439e-09)
"I0.outd" (-1.765626468558737e+02 1.210160229738386e-06)
"I0.mirr" (8.847006758776607e-02 -4.594201825926304e-09)
"I0.net1" (-1.765626468558737e+02 1.210160229738386e-06)
"VINC:p" (-7.025663379480542e-23 -1.376241453730279e-14)
"VIND:p" (-2.500000000041791e-12 -7.402341747094026e-15)
"VSUP:p" (-1.395846241938293e-01 7.964856239986128e-10)
"freq" 1.122018454301963e-03
"vdd!" (0.000000000000000e+00 0.000000000000000e+00)
"vout" (1.878492409265566e+04 -2.133911254854897e-04)
"vin_dm" (1.000000000000000e+00 0.000000000000000e+00)
"vin_cm" (0.000000000000000e+00 0.000000000000000e+00)
"vin_p" (5.000000000000000e-01 0.000000000000000e+00)
"net1" (-5.000000000000000e-01 0.000000000000000e+00)
"vbn" (7.272358277298969e-17 6.393848996283221e-09)
"vin_n" (-5.000000000000000e-01 -0.000000000000000e+00)
"I0.tail" (-3.559456012033622e-01 -3.125236206506470e-09)
"I0.outd" (-1.765626468558737e+02 1.357822110428772e-06)
"I0.mirr" (8.847006758776607e-02 -5.154779231477091e-09)
"I0.net1" (-1.765626468558737e+02 1.357822110428772e-06)
"VINC:p" (-8.844784199984886e-23 -1.544168308660735e-14)
"VIND:p" (-2.500000000052613e-12 -8.305564045289333e-15)
"VSUP:p" (-1.395846241938293e-01 8.936715687126579e-10)
"freq" 1.258925411794167e-03
"vdd!" (0.000000000000000e+00 0.000000000000000e+00)
"vout" (1.878492409265566e+04 -2.394287807789854e-04)
"vin_dm" (1.000000000000000e+00 0.000000000000000e+00)
"vin_cm" (0.000000000000000e+00 0.000000000000000e+00)
"vin_p" (5.000000000000000e-01 0.000000000000000e+00)
"net1" (-5.000000000000000e-01 0.000000000000000e+00)
"vbn" (9.155356638963317e-17 7.174016567849855e-09)
"vin_n" (-5.000000000000000e-01 -0.000000000000000e+00)
"I0.tail" (-3.559456012033622e-01 -3.506572697752918e-09)
"I0.outd" (-1.765626468558737e+02 1.523501465560320e-06)
"I0.mirr" (8.847006758776607e-02 -5.783757425569783e-09)
"I0.net1" (-1.765626468558737e+02 1.523501465560320e-06)
"VINC:p" (-1.113492944937563e-22 -1.732585338865595e-14)
"VIND:p" (-2.500000000066235e-12 -9.318996132201499e-15)
"VSUP:p" (-1.395846241938292e-01 1.002715992180587e-09)
"freq" 1.412537544622754e-03
"vdd!" (0.000000000000000e+00 0.000000000000000e+00)
"vout" (1.878492409265566e+04 -2.686435105250408e-04)
"vin_dm" (1.000000000000000e+00 0.000000000000000e+00)
"vin_cm" (0.000000000000000e+00 0.000000000000000e+00)
"vin_p" (5.000000000000000e-01 0.000000000000000e+00)
"net1" (-5.000000000000000e-01 0.000000000000000e+00)
"vbn" (1.152591112682936e-16 8.049378980595572e-09)
"vin_n" (-5.000000000000000e-01 -0.000000000000000e+00)
"I0.tail" (-3.559456012033622e-01 -3.934439278230196e-09)
"I0.outd" (-1.765626468558737e+02 1.709396759514767e-06)
"I0.mirr" (8.847006758776607e-02 -6.489482566695312e-09)
"I0.net1" (-1.765626468558737e+02 1.709396759514767e-06)
"VINC:p" (-1.401803556658331e-22 -1.943992723860218e-14)
"VIND:p" (-2.500000000083385e-12 -1.045608563589870e-14)
"VSUP:p" (-1.395846241938292e-01 1.125065847650323e-09)
"freq" 1.584893192461113e-03
"vdd!" (0.000000000000000e+00 0.000000000000000e+00)
"vout" (1.878492409265566e+04 -3.014229764375595e-04)
"vin_dm" (1.000000000000000e+00 0.000000000000000e+00)
"vin_cm" (0.000000000000000e+00 0.000000000000000e+00)
"vin_p" (5.000000000000000e-01 0.000000000000000e+00)
"net1" (-5.000000000000000e-01 0.000000000000000e+00)
"vbn" (1.451026241164662e-16 9.031551761898558e-09)
"vin_n" (-5.000000000000000e-01 -0.000000000000000e+00)
"I0.tail" (-3.559456012033622e-01 -4.414513477504776e-09)
"I0.outd" (-1.765626468558737e+02 1.917974709899543e-06)
"I0.mirr" (8.847006758776607e-02 -7.281319198703010e-09)
"I0.net1" (-1.765626468558737e+02 1.917974709899543e-06)
"VINC:p" (-1.764766410868443e-22 -2.181195711199905e-14)
"VIND:p" (-2.500000000104975e-12 -1.173192104324002e-14)
"VSUP:p" (-1.395846241938292e-01 1.262344643368542e-09)
"freq" 1.778279410038922e-03
"vdd!" (0.000000000000000e+00 0.000000000000000e+00)
"vout" (1.878492409265566e+04 -3.382021421135676e-04)
"vin_dm" (1.000000000000000e+00 0.000000000000000e+00)
"vin_cm" (0.000000000000000e+00 0.000000000000000e+00)
"vin_p" (5.000000000000000e-01 0.000000000000000e+00)
"net1" (-5.000000000000000e-01 0.000000000000000e+00)
"vbn" (1.826733808182364e-16 1.013356774783359e-08)
"vin_n" (-5.000000000000000e-01 -0.000000000000000e+00)
"I0.tail" (-3.559456012033622e-01 -4.953165588525096e-09)
"I0.outd" (-1.765626468558737e+02 2.152003019391743e-06)
"I0.mirr" (8.847006758776607e-02 -8.169774512607969e-09)
"I0.net1" (-1.765626468558737e+02 2.152003019391743e-06)
"VINC:p" (-2.221709988141007e-22 -2.447341840410589e-14)
"VIND:p" (-2.500000000132156e-12 -1.316343191492885e-14)
"VSUP:p" (-1.395846241938292e-01 1.416373985548736e-09)
"freq" 1.995262314968878e-03
"vdd!" (0.000000000000000e+00 0.000000000000000e+00)
"vout" (1.878492409265566e+04 -3.794690447358781e-04)
"vin_dm" (1.000000000000000e+00 0.000000000000000e+00)
"vin_cm" (0.000000000000000e+00 0.000000000000000e+00)
"vin_p" (5.000000000000000e-01 0.000000000000000e+00)
"net1" (-5.000000000000000e-01 0.000000000000000e+00)
"vbn" (2.299721611704309e-16 1.137005002098847e-08)
"vin_n" (-5.000000000000000e-01 -0.000000000000000e+00)
"I0.tail" (-3.559456012033623e-01 -5.557543197538600e-09)
"I0.outd" (-1.765626468558737e+02 2.414587101471080e-06)
"I0.mirr" (8.847006758776596e-02 -9.166637770631960e-09)
"I0.net1" (-1.765626468558737e+02 2.414587101471080e-06)
"VINC:p" (-2.796967050196363e-22 -2.745962708926011e-14)
"VIND:p" (-2.500000000166375e-12 -1.476961353049760e-14)
"VSUP:p" (-1.395846241938292e-01 1.589197749978903e-09)
"freq" 2.238721138568338e-03
"vdd!" (0.000000000000000e+00 0.000000000000000e+00)
"vout" (1.878492409265565e+04 -4.257712710299924e-04)
"vin_dm" (1.000000000000000e+00 0.000000000000000e+00)
"vin_cm" (0.000000000000000e+00 0.000000000000000e+00)
"vin_p" (5.000000000000000e-01 0.000000000000000e+00)
"net1" (-5.000000000000000e-01 0.000000000000000e+00)
"vbn" (2.895177977026793e-16 1.275740594988549e-08)
"vin_n" (-5.000000000000000e-01 -0.000000000000000e+00)
"I0.tail" (-3.559456012033623e-01 -6.235666028218649e-09)
"I0.outd" (-1.765626468558737e+02 2.709211287370039e-06)
"I0.mirr" (8.847006758776585e-02 -1.028513674255046e-08)
"I0.net1" (-1.765626468558737e+02 2.709211287370039e-06)
"VINC:p" (-3.521173168060951e-22 -3.081020834239995e-14)
"VIND:p" (-2.500000000209454e-12 -1.657177894412628e-14)
"VSUP:p" (-1.395846241938293e-01 1.783109203011487e-09)
"freq" 2.511886431509578e-03
"vdd!" (0.000000000000000e+00 0.000000000000000e+00)
"vout" (1.878492409265565e+04 -4.777232234072543e-04)
"vin_dm" (1.000000000000000e+00 0.000000000000000e+00)
"vin_cm" (0.000000000000000e+00 0.000000000000000e+00)
"vin_p" (5.000000000000000e-01 0.000000000000000e+00)
"net1" (-5.000000000000000e-01 0.000000000000000e+00)
"vbn" (3.644813126945858e-16 1.431404490479319e-08)
"vin_n" (-5.000000000000000e-01 -0.000000000000000e+00)
"I0.tail" (-3.559456012033623e-01 -6.996532358525151e-09)
"I0.outd" (-1.765626468558737e+02 3.039785061032363e-06)
"I0.mirr" (8.847006758776585e-02 -1.154011323016080e-08)
"I0.net1" (-1.765626468558737e+02 3.039785061032363e-06)
"VINC:p" (-4.432895435846662e-22 -3.456962234106105e-14)
"VIND:p" (-2.500000000263687e-12 -1.859384179592239e-14)
"VSUP:p" (-1.395846241938293e-01 2.000681431814553e-09)
"freq" 2.818382931264451e-03
"vdd!" (0.000000000000000e+00 0.000000000000000e+00)
"vout" (1.878492409265565e+04 -5.360142727115589e-04)
"vin_dm" (1.000000000000000e+00 0.000000000000000e+00)
"vin_cm" (0.000000000000000e+00 0.000000000000000e+00)
"vin_p" (5.000000000000000e-01 0.000000000000000e+00)
"net1" (-5.000000000000000e-01 0.000000000000000e+00)
"vbn" (4.588547866753098e-16 1.606062253888494e-08)
"vin_n" (-5.000000000000000e-01 -0.000000000000000e+00)
"I0.tail" (-3.559456012033624e-01 -7.850238422386057e-09)
"I0.outd" (-1.765626468558737e+02 3.410694935589732e-06)
"I0.mirr" (8.847006758776574e-02 -1.294822000897466e-08)
"I0.net1" (-1.765626468558737e+02 3.410694935589732e-06)
"VINC:p" (-5.580685276152848e-22 -3.878775422491994e-14)
"VIND:p" (-2.500000000331962e-12 -2.086263363139608e-14)
"VSUP:p" (-1.395846241938292e-01 2.244801487675205e-09)
"freq" 3.162277660168376e-03
"vdd!" (0.000000000000000e+00 0.000000000000000e+00)
"vout" (1.878492409265565e+04 -6.014179057516144e-04)
"vin_dm" (1.000000000000000e+00 0.000000000000000e+00)
"vin_cm" (0.000000000000000e+00 0.000000000000000e+00)
"vin_p" (5.000000000000000e-01 0.000000000000000e+00)
"net1" (-5.000000000000000e-01 0.000000000000000e+00)
"vbn" (5.776639512689391e-16 1.802031487620696e-08)
"vin_n" (-5.000000000000000e-01 -0.000000000000000e+00)
"I0.tail" (-3.559456012033625e-01 -8.808112380587488e-09)
"I0.outd" (-1.765626468558737e+02 3.826862659725924e-06)
"I0.mirr" (8.847006758776563e-02 -1.452814180043149e-08)
"I0.net1" (-1.765626468558737e+02 3.826862659725924e-06)
"VINC:p" (-7.025664389222501e-22 -4.352057604128911e-14)
"VIND:p" (-2.500000000417915e-12 -2.340825993976718e-14)
"VSUP:p" (-1.395846241938292e-01 2.518708695416080e-09)
"freq" 3.548133892335751e-03
"vdd!" (0.000000000000000e+00 0.000000000000000e+00)
"vout" (1.878492409265564e+04 -6.748019890009500e-04)
"vin_dm" (1.000000000000000e+00 0.000000000000000e+00)
"vin_cm" (0.000000000000000e+00 0.000000000000000e+00)
"vin_p" (5.000000000000000e-01 0.000000000000000e+00)
"net1" (-5.000000000000000e-01 0.000000000000000e+00)
"vbn" (7.272358277298946e-16 2.021912584343640e-08)
"vin_n" (-5.000000000000000e-01 -0.000000000000000e+00)
"I0.tail" (-3.559456012033625e-01 -9.882864638584761e-09)
"I0.outd" (-1.765626468558736e+02 4.293810526291581e-06)
"I0.mirr" (8.847006758776552e-02 -1.630084320679989e-08)
"I0.net1" (-1.765626468558736e+02 4.293810526291581e-06)
"VINC:p" (-8.844788238952720e-22 -4.883088946017826e-14)
"VIND:p" (-2.500000000526124e-12 -2.626449963551614e-14)
"VSUP:p" (-1.395846241938292e-01 2.826037637267664e-09)
"freq" 3.981071705534968e-03
"vdd!" (0.000000000000000e+00 0.000000000000000e+00)
"vout" (1.878492409265563e+04 -7.571402846587359e-04)
"vin_dm" (1.000000000000000e+00 0.000000000000000e+00)
"vin_cm" (0.000000000000000e+00 0.000000000000000e+00)
"vin_p" (5.000000000000000e-01 0.000000000000000e+00)
"net1" (-5.000000000000000e-01 0.000000000000000e+00)
"vbn" (9.155356638963290e-16 2.268623232618938e-08)
"vin_n" (-5.000000000000000e-01 -0.000000000000000e+00)
"I0.tail" (-3.559456012033625e-01 -1.108875650586040e-08)
"I0.outd" (-1.765626468558736e+02 4.817734649775177e-06)
"I0.mirr" (8.847006758776552e-02 -1.828984689871226e-08)
"I0.net1" (-1.765626468558736e+02 4.817734649775177e-06)
"VINC:p" (-1.113492843963367e-21 -5.478915911429923e-14)
"VIND:p" (-2.500000000662351e-12 -2.946925328405629e-14)
"VSUP:p" (-1.395846241938292e-01 3.170866381566236e-09)
"freq" 4.466835921509626e-03
"vdd!" (0.000000000000000e+00 0.000000000000000e+00)
"vout" (1.878492409265563e+04 -8.495253718825435e-04)
"vin_dm" (1.000000000000000e+00 0.000000000000000e+00)
"vin_cm" (0.000000000000000e+00 0.000000000000000e+00)
"vin_p" (5.000000000000000e-01 0.000000000000000e+00)
"net1" (-5.000000000000000e-01 0.000000000000000e+00)
"vbn" (1.152591112682932e-15 2.545437132856624e-08)
"vin_n" (-5.000000000000000e-01 -0.000000000000000e+00)
"I0.tail" (-3.559456012033627e-01 -1.244178943483631e-08)
"I0.outd" (-1.765626468558735e+02 5.405587184977754e-06)
"I0.mirr" (8.847006758776518e-02 -2.052154574671268e-08)
"I0.net1" (-1.765626468558735e+02 5.405587184977754e-06)
"VINC:p" (-1.401804465426094e-21 -6.147444762193033e-14)
"VIND:p" (-2.500000000833851e-12 -3.306504601920988e-14)
"VSUP:p" (-1.395846241938291e-01 3.557770596243007e-09)
"freq" 5.011872336272717e-03
"vdd!" (0.000000000000000e+00 0.000000000000000e+00)
"vout" (1.878492409265562e+04 -9.531831446499514e-04)
"vin_dm" (1.000000000000000e+00 0.000000000000000e+00)
"vin_cm" (0.000000000000000e+00 0.000000000000000e+00)
"vin_p" (5.000000000000000e-01 0.000000000000000e+00)
"net1" (-5.000000000000000e-01 0.000000000000000e+00)
"vbn" (1.451026241164656e-15 2.856027437330607e-08)
"vin_n" (-5.000000000000000e-01 -0.000000000000000e+00)
"I0.tail" (-3.559456012033629e-01 -1.395991735042553e-08)
"I0.outd" (-1.765626468558735e+02 6.065168577883237e-06)
"I0.mirr" (8.847006758776496e-02 -2.302555303861357e-08)
"I0.net1" (-1.765626468558735e+02 6.065168577883237e-06)
"VINC:p" (-1.764767218662010e-21 -6.897546469982526e-14)
"VIND:p" (-2.500000001049756e-12 -3.709959182589715e-14)
"VSUP:p" (-1.395846241938291e-01 3.991884265157551e-09)
"freq" 5.623413251903483e-03
"vdd!" (0.000000000000000e+00 0.000000000000000e+00)
"vout" (1.878492409265561e+04 -1.069489078626823e-03)
"vin_dm" (1.000000000000000e+00 0.000000000000000e+00)
"vin_cm" (0.000000000000000e+00 0.000000000000000e+00)
"vin_p" (5.000000000000000e-01 0.000000000000000e+00)
"net1" (-5.000000000000000e-01 0.000000000000000e+00)
"vbn" (1.826733808182356e-15 3.204515490677684e-08)
"vin_n" (-5.000000000000000e-01 -0.000000000000000e+00)
"I0.tail" (-3.559456012033631e-01 -1.566328488770760e-08)
"I0.outd" (-1.765626468558734e+02 6.805231072837384e-06)
"I0.mirr" (8.847006758776463e-02 -2.583509542983306e-08)
"I0.net1" (-1.765626468558734e+02 6.805231072837384e-06)
"VINC:p" (-2.221710291063595e-21 -7.739174428725756e-14)
"VIND:p" (-2.500000001321564e-12 -4.162642667572687e-14)
"VSUP:p" (-1.395846241938291e-01 4.478967812944402e-09)
"freq" 6.309573444801923e-03
"vdd!" (0.000000000000000e+00 0.000000000000000e+00)
"vout" (1.878492409265559e+04 -1.199986482893698e-03)
"vin_dm" (1.000000000000000e+00 0.000000000000000e+00)
"vin_cm" (0.000000000000000e+00 0.000000000000000e+00)
"vin_p" (5.000000000000000e-01 0.000000000000000e+00)
"net1" (-5.000000000000000e-01 0.000000000000000e+00)
"vbn" (2.299721611704298e-15 3.595525517636870e-08)
"vin_n" (-5.000000000000000e-01 -0.000000000000000e+00)
"I0.tail" (-3.559456012033634e-01 -1.757449469899697e-08)
"I0.outd" (-1.765626468558733e+02 7.635594849512688e-06)
"I0.mirr" (8.847006758776407e-02 -2.898745384092498e-08)
"I0.net1" (-1.765626468558733e+02 7.635594849512688e-06)
"VINC:p" (-2.796967555067343e-21 -8.683496530092151e-14)
"VIND:p" (-2.500000001663751e-12 -4.670561891681305e-14)
"VSUP:p" (-1.395846241938290e-01 5.025484542348119e-09)
"freq" 7.079457843841368e-03
"vdd!" (0.000000000000000e+00 0.000000000000000e+00)
"vout" (1.878492409265558e+04 -1.346406978719635e-03)
"vin_dm" (1.000000000000000e+00 0.000000000000000e+00)
"vin_cm" (0.000000000000000e+00 0.000000000000000e+00)
"vin_p" (5.000000000000000e-01 0.000000000000000e+00)
"net1" (-5.000000000000000e-01 0.000000000000000e+00)
"vbn" (2.895177977026777e-15 4.034245983702184e-08)
"vin_n" (-5.000000000000000e-01 -0.000000000000000e+00)
"I0.tail" (-3.559456012033637e-01 -1.971890737730660e-08)
"I0.outd" (-1.765626468558732e+02 8.567278330726252e-06)
"I0.mirr" (8.847006758776363e-02 -3.252445815274412e-08)
"I0.net1" (-1.765626468558732e+02 8.567278330726252e-06)
"VINC:p" (-3.521173672931930e-21 -9.743043354630452e-14)
"VIND:p" (-2.500000002094539e-12 -5.240456634425908e-14)
"VSUP:p" (-1.395846241938289e-01 5.638686398323841e-09)
"freq" 7.943282347242802e-03
"vdd!" (0.000000000000000e+00 0.000000000000000e+00)
"vout" (1.878492409265556e+04 -1.510693477124380e-03)
"vin_dm" (1.000000000000000e+00 0.000000000000000e+00)
"vin_cm" (0.000000000000000e+00 0.000000000000000e+00)
"vin_p" (5.000000000000000e-01 0.000000000000000e+00)
"net1" (-5.000000000000000e-01 0.000000000000000e+00)
"vbn" (3.644813126945835e-15 4.526498442907424e-08)
"vin_n" (-5.000000000000000e-01 -0.000000000000000e+00)
"I0.tail" (-3.559456012033642e-01 -2.212497797600912e-08)
"I0.outd" (-1.765626468558731e+02 9.612644390216163e-06)
"I0.mirr" (8.847006758776285e-02 -3.649304226355082e-08)
"I0.net1" (-1.765626468558731e+02 9.612644390216163e-06)
"VINC:p" (-4.432894729027291e-21 -1.093187444495947e-13)
"VIND:p" (-2.500000002636868e-12 -5.879889052795023e-14)
"VSUP:p" (-1.395846241938288e-01 6.326710196940815e-09)
"freq" 8.912509381337440e-03
"vdd!" (0.000000000000000e+00 0.000000000000000e+00)
"vout" (1.878492409265553e+04 -1.695025960127152e-03)
"vin_dm" (1.000000000000000e+00 0.000000000000000e+00)
"vin_cm" (0.000000000000000e+00 0.000000000000000e+00)
"vin_p" (5.000000000000000e-01 0.000000000000000e+00)
"net1" (-5.000000000000000e-01 0.000000000000000e+00)
"vbn" (4.588547866753063e-15 5.078814786311224e-08)
"vin_n" (-5.000000000000000e-01 -0.000000000000000e+00)
"I0.tail" (-3.559456012033646e-01 -2.482463359010670e-08)
"I0.outd" (-1.765626468558729e+02 1.078556440046477e-05)
"I0.mirr" (8.847006758776207e-02 -4.094586687332546e-08)
"I0.net1" (-1.765626468558729e+02 1.078556440046477e-05)
"VINC:p" (-5.580683963488302e-21 -1.226576486735655e-13)
"VIND:p" (-2.500000003319620e-12 -6.597344026484101e-14)
"VSUP:p" (-1.395846241938287e-01 7.098685595987998e-09)
"freq" 9.999999999999981e-03
"vdd!" (0.000000000000000e+00 0.000000000000000e+00)
"vout" (1.878492409265548e+04 -1.901850407783565e-03)
"vin_dm" (1.000000000000000e+00 0.000000000000000e+00)
"vin_cm" (0.000000000000000e+00 0.000000000000000e+00)
"vin_p" (5.000000000000000e-01 0.000000000000000e+00)
"net1" (-5.000000000000000e-01 0.000000000000000e+00)
"vbn" (5.776639512689333e-15 5.698523916222862e-08)
"vin_n" (-5.000000000000000e-01 -0.000000000000000e+00)
"I0.tail" (-3.559456012033653e-01 -2.785369700938404e-08)
"I0.outd" (-1.765626468558727e+02 1.210160229738373e-05)
"I0.mirr" (8.847006758776108e-02 -4.594201825926245e-08)
"I0.net1" (-1.765626468558727e+02 1.210160229738373e-05)
"VINC:p" (-7.025664793119284e-21 -1.376241453730271e-13)
"VIND:p" (-2.500000004179153e-12 -7.402341747093974e-14)
