HEADER
"PSFversion" "1.00"
"simulator" "spectre"
"version" "25.1.0.235.isr5"
"date" "7:23:46 PM, Fri Jul 17, 2026"
"design" "// Point Netlist Generated on: Jul 17 08:44:01 2026"
"analysis type" "ac"
"analysis name" "ac"
"analysis description" "AC Analysis `ac': freq = (1 mHz -> 10 GHz)"
"xVecSorted" "ascending"
"tolerance.relative" 1.000000000000000e-03
"start" 1.000000000000000e-03
"stop" 1.000000000000000e+10
"operating point producer" "ac"
TYPE
"sweep" FLOAT DOUBLE PROP(
"key" "sweep"
)
"V" COMPLEX DOUBLE PROP(
"units" "V"
"key" "node"
"tolerance" 1.000000000000000e-06
)
"I" COMPLEX DOUBLE PROP(
"units" "A"
"key" "branch"
"tolerance" 1.000000000000000e-12
)
"MMF" COMPLEX DOUBLE PROP(
"units" "A*turn"
"key" "node"
"tolerance" 1.000000000000000e-12
)
"Wb" COMPLEX DOUBLE PROP(
"units" "Wb"
"key" "node"
"tolerance" 1.000000000000000e-09
)
"Temp" COMPLEX DOUBLE PROP(
"units" "C"
"key" "node"
"tolerance" 1.000000000000000e-04
)
"Pwr" COMPLEX DOUBLE PROP(
"units" "W"
"key" "node"
"tolerance" 1.000000000000000e-09
)
"U" COMPLEX DOUBLE PROP(
"units" ""
"key" "node"
"tolerance" 1.000000000000000e-06
)
"V/Sec" COMPLEX DOUBLE PROP(
"units" "V/s"
"key" "node"
"tolerance" 9.999999999999999e-05
)
"I/Sec" COMPLEX DOUBLE PROP(
"units" "A/s"
"key" "node"
"tolerance" 1.000000000000000e-06
)
"1/Sec" COMPLEX DOUBLE PROP(
"units" "1/s"
"key" "node"
"tolerance" 9.999999999999999e-05
)
"HOD" COMPLEX DOUBLE PROP(
"units" ""
"key" "node"
"tolerance" 1.000000000000000e-02
)
"Q" COMPLEX DOUBLE PROP(
"units" "Coul"
"key" "node"
"tolerance" 1.000000000000000e-15
)
"Efield" COMPLEX DOUBLE PROP(
"units" "V/m"
"key" "node"
"tolerance" 1.000000000000000e-06
"sigtype" "optical"
)
SWEEP
"freq" "sweep" PROP(
"sweep_direction" 0
"units" "Hz"
"plot" 0
"grid" 3
)
TRACE
"vdd!" "V"
"out" "V"
"n4" "V"
"n3" "V"
"in" "V"
"n2" "V"
"n1" "V"
"VIN:p" "I"
"VPORT1:p" "I"
"VPORT2:p" "I"
"VSUP:p" "I"
VALUE
"freq" 1.000000000000000e-03
"vdd!" (0.000000000000000e+00 0.000000000000000e+00)
"out" (5.752332847892807e-01 -5.527900821215696e-12)
"n4" (5.752332847892807e-01 -5.527900821215696e-12)
"n3" (0.000000000000000e+00 -0.000000000000000e+00)
"in" (1.000000000000000e+00 0.000000000000000e+00)
"n2" (6.748887631467150e-01 -2.232403602264379e-12)
"n1" (8.378623377009089e-01 -1.864237187399230e-12)
"VIN:p" (2.200494281807885e-27 -3.962823910355079e-16)
"VPORT1:p" (3.473282521940844e-26 3.614297323188659e-15)
"VPORT2:p" (-1.257768115230838e-10 3.634199963609311e-15)
"VSUP:p" (6.904455658895519e-09 -3.283596720653623e-15)
"freq" 1.122018454301963e-03
"vdd!" (0.000000000000000e+00 0.000000000000000e+00)
"out" (5.752332847892807e-01 -6.202406734954989e-12)
"n4" (5.752332847892807e-01 -6.202406734954989e-12)
"n3" (0.000000000000000e+00 -0.000000000000000e+00)
"in" (1.000000000000000e+00 0.000000000000000e+00)
"n2" (6.748887631467150e-01 -2.504798039190814e-12)
"n1" (8.378623377009089e-01 -2.091708527457923e-12)
"VIN:p" (2.770258169875701e-27 -4.446361558567471e-16)
"VPORT1:p" (4.372603629211859e-26 4.055308295951864e-15)
"VPORT2:p" (-1.257768115230838e-10 4.077639425793172e-15)
"VSUP:p" (6.904455658895519e-09 -3.684256117058774e-15)
"freq" 1.258925411794167e-03
"vdd!" (0.000000000000000e+00 0.000000000000000e+00)
"out" (5.752332847892807e-01 -6.959214817706284e-12)
"n4" (5.752332847892807e-01 -6.959214817706284e-12)
"n3" (0.000000000000000e+00 -0.000000000000000e+00)
"in" (1.000000000000000e+00 0.000000000000000e+00)
"n2" (6.748887631467150e-01 -2.810429624271465e-12)
"n1" (8.378623377009089e-01 -2.346935568828574e-12)
"VIN:p" (3.487548407286922e-27 -4.988899723211541e-16)
"VPORT1:p" (5.504781824518208e-26 4.550130745941838e-15)
"VPORT2:p" (-1.257768115230838e-10 4.575186685729199e-15)
"VSUP:p" (6.904455658895519e-09 -4.133803353714840e-15)
"freq" 1.412537544622754e-03
"vdd!" (0.000000000000000e+00 0.000000000000000e+00)
"out" (5.752332847892807e-01 -7.808367452918125e-12)
"n4" (5.752332847892807e-01 -7.808367452918125e-12)
"n3" (0.000000000000000e+00 -0.000000000000000e+00)
"in" (1.000000000000000e+00 0.000000000000000e+00)
"n2" (6.748887631467150e-01 -3.153353902949517e-12)
"n1" (8.378623377009089e-01 -2.633305019283336e-12)
"VIN:p" (4.390563314795780e-27 -5.597637556105306e-16)
"VPORT1:p" (6.930109725268632e-26 5.105330666433501e-15)
"VPORT2:p" (-1.257768115230838e-10 5.133443893264800e-15)
"VSUP:p" (6.904455658895519e-09 -4.638203649323397e-15)
"freq" 1.584893192461113e-03
"vdd!" (0.000000000000000e+00 0.000000000000000e+00)
"out" (5.752332847892807e-01 -8.761132380144950e-12)
"n4" (5.752332847892807e-01 -8.761132380144950e-12)
"n3" (0.000000000000000e+00 -0.000000000000000e+00)
"in" (1.000000000000000e+00 0.000000000000000e+00)
"n2" (6.748887631467150e-01 -3.538121272054480e-12)
"n1" (8.378623377009089e-01 -2.954616827441890e-12)
"VIN:p" (5.527391729087637e-27 -6.280652638443894e-16)
"VPORT1:p" (8.724491239662570e-26 5.728275223052129e-15)
"VPORT2:p" (-1.257768115230838e-10 5.759818782366821e-15)
"VSUP:p" (6.904455658895519e-09 -5.204150089351560e-15)
"freq" 1.778279410038922e-03
"vdd!" (0.000000000000000e+00 0.000000000000000e+00)
"out" (5.752332847892807e-01 -9.830152211105123e-12)
"n4" (5.752332847892807e-01 -9.830152211105123e-12)
"n3" (0.000000000000000e+00 -0.000000000000000e+00)
"in" (1.000000000000000e+00 0.000000000000000e+00)
"n2" (6.748887631467150e-01 -3.969837360803467e-12)
"n1" (8.378623377009089e-01 -3.315134605780921e-12)
"VIN:p" (6.958573908689332e-27 -7.047008165394367e-16)
"VPORT1:p" (1.098348372658681e-25 6.427230511585184e-15)
"VPORT2:p" (-1.257768115230838e-10 6.462622967250639e-15)
"VSUP:p" (6.904455658895519e-09 -5.839152439209667e-15)
"freq" 1.995262314968878e-03
"vdd!" (0.000000000000000e+00 0.000000000000000e+00)
"out" (5.752332847892807e-01 -1.102961218945719e-11)
"n4" (5.752332847892807e-01 -1.102961218945719e-11)
"n3" (0.000000000000000e+00 -0.000000000000000e+00)
"in" (1.000000000000000e+00 0.000000000000000e+00)
"n2" (6.748887631467150e-01 -4.454230779398890e-12)
"n1" (8.378623377009089e-01 -3.719642206181259e-12)
"VIN:p" (8.760325523496863e-27 -7.906873209189097e-16)
"VPORT1:p" (1.382738677342783e-25 7.211471244051224e-15)
"VPORT2:p" (-1.257768115230838e-10 7.251182232450929e-15)
"VSUP:p" (6.904455658895519e-09 -6.551636794275568e-15)
"freq" 2.238721138568338e-03
"vdd!" (0.000000000000000e+00 0.000000000000000e+00)
"out" (5.752332847892807e-01 -1.237542842036485e-11)
"n4" (5.752332847892807e-01 -1.237542842036485e-11)
"n3" (0.000000000000000e+00 -0.000000000000000e+00)
"in" (1.000000000000000e+00 0.000000000000000e+00)
"n2" (6.748887631467150e-01 -4.997729134205369e-12)
"n1" (8.378623377009089e-01 -4.173507198735837e-12)
"VIN:p" (1.102859641711923e-26 -8.871657656535963e-16)
"VPORT1:p" (1.740764858777484e-25 8.091403818493411e-15)
"VPORT2:p" (-1.257768115230838e-10 8.135960280316454e-15)
"VSUP:p" (6.904455658895519e-09 -7.351057389060940e-15)
"freq" 2.511886431509578e-03
"vdd!" (0.000000000000000e+00 0.000000000000000e+00)
"out" (5.752332847892807e-01 -1.388545906754236e-11)
"n4" (5.752332847892807e-01 -1.388545906754236e-11)
"n3" (0.000000000000000e+00 -0.000000000000000e+00)
"in" (1.000000000000000e+00 0.000000000000000e+00)
"n2" (6.748887631467150e-01 -5.607544318180999e-12)
"n1" (8.378623377009089e-01 -4.682752096143705e-12)
"VIN:p" (1.388418028593351e-26 -9.954163610882661e-16)
"VPORT1:p" (2.191493116673259e-25 9.078704405558980e-15)
"VPORT2:p" (-1.257768115230838e-10 9.128697577982833e-15)
"VSUP:p" (6.904455658895519e-09 -8.248022049159185e-15)
"freq" 2.818382931264451e-03
"vdd!" (0.000000000000000e+00 0.000000000000000e+00)
"out" (5.752332847892807e-01 -1.557974132023706e-11)
"n4" (5.752332847892807e-01 -1.557974132023706e-11)
"n3" (0.000000000000000e+00 -0.000000000000000e+00)
"in" (1.000000000000000e+00 0.000000000000000e+00)
"n2" (6.748887631467150e-01 -6.291768208315201e-12)
"n1" (8.378623377009089e-01 -5.254134268794436e-12)
"VIN:p" (1.747914738389329e-26 -1.116875526855141e-15)
"VPORT1:p" (2.758926374351965e-25 1.018647388418971e-14)
"VPORT2:p" (-1.257768115230838e-10 1.024256714623837e-14)
"VSUP:p" (6.904455658895519e-09 -9.254432950646095e-15)
"freq" 3.162277660168376e-03
"vdd!" (0.000000000000000e+00 0.000000000000000e+00)
"out" (5.752332847892807e-01 -1.748075727455681e-11)
"n4" (5.752332847892807e-01 -1.748075727455681e-11)
"n3" (0.000000000000000e+00 -0.000000000000000e+00)
"in" (1.000000000000000e+00 0.000000000000000e+00)
"n2" (6.748887631467150e-01 -7.059480039920055e-12)
"n1" (8.378623377009089e-01 -5.895235610967709e-12)
"VIN:p" (2.200494281807880e-26 -1.253154952289696e-15)
"VPORT1:p" (3.473282521940836e-25 1.142941168232586e-14)
"VPORT2:p" (-1.257768115230838e-10 1.149234935750645e-14)
"VSUP:p" (6.904455658895519e-09 -1.038364455472510e-14)
"freq" 3.548133892335751e-03
"vdd!" (0.000000000000000e+00 0.000000000000000e+00)
"out" (5.752332847892807e-01 -1.961373225722604e-11)
"n4" (5.752332847892807e-01 -1.961373225722604e-11)
"n3" (0.000000000000000e+00 -0.000000000000000e+00)
"in" (1.000000000000000e+00 0.000000000000000e+00)
"n2" (6.748887631467150e-01 -7.920866882566664e-12)
"n1" (8.378623377009089e-01 -6.614563147963880e-12)
"VIN:p" (2.770258169875696e-26 -1.406062982568935e-15)
"VPORT1:p" (4.372603629211850e-25 1.282401082938406e-14)
"VPORT2:p" (-1.257768115230838e-10 1.289462806240755e-14)
"VSUP:p" (6.904455658895519e-09 -1.165064081331365e-14)
"freq" 3.981071705534968e-03
"vdd!" (0.000000000000000e+00 0.000000000000000e+00)
"out" (5.752332847892807e-01 -2.200696955034533e-11)
"n4" (5.752332847892807e-01 -2.200696955034533e-11)
"n3" (0.000000000000000e+00 -0.000000000000000e+00)
"in" (1.000000000000000e+00 0.000000000000000e+00)
"n2" (6.748887631467150e-01 -8.887358816309060e-12)
"n1" (8.378623377009089e-01 -7.421661919161162e-12)
"VIN:p" (3.487548407286916e-26 -1.577628614353205e-15)
"VPORT1:p" (5.504781824518199e-25 1.438877680873715e-14)
"VPORT2:p" (-1.257768115230838e-10 1.446801064738125e-14)
"VSUP:p" (6.904455658895519e-09 -1.307223399698156e-14)
"freq" 4.466835921509626e-03
"vdd!" (0.000000000000000e+00 0.000000000000000e+00)
"out" (5.752332847892807e-01 -2.469222595874884e-11)
"n4" (5.752332847892807e-01 -2.469222595874884e-11)
"n3" (0.000000000000000e+00 -0.000000000000000e+00)
"in" (1.000000000000000e+00 0.000000000000000e+00)
"n2" (6.748887631467150e-01 -9.971780601902015e-12)
"n1" (8.378623377009089e-01 -8.327241634888949e-12)
"VIN:p" (4.390563314795772e-26 -1.770128419339132e-15)
"VPORT1:p" (6.930109725268620e-25 1.614447311423519e-14)
"VPORT2:p" (-1.257768115230838e-10 1.623337494339906e-14)
"VSUP:p" (6.904455658895519e-09 -1.466728778356682e-14)
"freq" 5.011872336272717e-03
"vdd!" (0.000000000000000e+00 0.000000000000000e+00)
"out" (5.752332847892807e-01 -2.770513320351018e-11)
"n4" (5.752332847892807e-01 -2.770513320351018e-11)
"n3" (0.000000000000000e+00 -0.000000000000000e+00)
"in" (1.000000000000000e+00 0.000000000000000e+00)
"n2" (6.748887631467150e-01 -1.118852185758440e-11)
"n1" (8.378623377009089e-01 -9.343318787777057e-12)
"VIN:p" (5.527391729087632e-26 -1.986116752982871e-15)
"VPORT1:p" (8.724491239662557e-25 1.811439676915377e-14)
"VPORT2:p" (-1.257768115230838e-10 1.821414626209682e-14)
"VSUP:p" (6.904455658895519e-09 -1.645696756771971e-14)
"freq" 5.623413251903483e-03
"vdd!" (0.000000000000000e+00 0.000000000000000e+00)
"out" (5.752332847892807e-01 -3.108567073323250e-11)
"n4" (5.752332847892807e-01 -3.108567073323250e-11)
"n3" (0.000000000000000e+00 -0.000000000000000e+00)
"in" (1.000000000000000e+00 0.000000000000000e+00)
"n2" (6.748887631467150e-01 -1.255372800057058e-11)
"n1" (8.378623377009089e-01 -1.048337610431210e-11)
"VIN:p" (6.958573908689317e-26 -2.228459649245074e-15)
"VPORT1:p" (1.098348372658679e-24 2.032468746353839e-14)
"VPORT2:p" (-1.257768115230838e-10 2.043660823542777e-14)
"VSUP:p" (6.904455658895519e-09 -1.846502131283042e-14)
"freq" 6.309573444801923e-03
"vdd!" (0.000000000000000e+00 0.000000000000000e+00)
"out" (5.752332847892807e-01 -3.487869622704129e-11)
"n4" (5.752332847892807e-01 -3.487869622704129e-11)
"n3" (0.000000000000000e+00 -0.000000000000000e+00)
"in" (1.000000000000000e+00 0.000000000000000e+00)
"n2" (6.748887631467150e-01 -1.408551448692748e-11)
"n1" (8.378623377009089e-01 -1.176254145242640e-11)
"VIN:p" (8.760325523496845e-26 -2.500372851120253e-15)
"VPORT1:p" (1.382738677342780e-24 2.280467441200984e-14)
"VPORT2:p" (-1.257768115230838e-10 2.293025158348942e-14)
"VSUP:p" (6.904455658895519e-09 -2.071809467207478e-14)
"freq" 7.079457843841368e-03
"vdd!" (0.000000000000000e+00 0.000000000000000e+00)
"out" (5.752332847892807e-01 -3.913454082873260e-11)
"n4" (5.752332847892807e-01 -3.913454082873260e-11)
"n3" (0.000000000000000e+00 -0.000000000000000e+00)
"in" (1.000000000000000e+00 0.000000000000000e+00)
"n2" (6.748887631467150e-01 -1.580420719267029e-11)
"n1" (8.378623377009089e-01 -1.319778857911424e-11)
"VIN:p" (1.102859641711921e-25 -2.805464481592539e-15)
"VPORT1:p" (1.740764858777481e-24 2.558726553462281e-14)
"VPORT2:p" (-1.257768115230838e-10 2.572816543846197e-14)
"VSUP:p" (6.904455658895519e-09 -2.324608456004310e-14)
"freq" 7.943282347242802e-03
"vdd!" (0.000000000000000e+00 0.000000000000000e+00)
"out" (5.752332847892807e-01 -4.390967701047161e-11)
"n4" (5.752332847892807e-01 -4.390967701047161e-11)
"n3" (0.000000000000000e+00 -0.000000000000000e+00)
"in" (1.000000000000000e+00 0.000000000000000e+00)
"n2" (6.748887631467150e-01 -1.773261212578788e-11)
"n1" (8.378623377009089e-01 -1.480816234174187e-11)
"VIN:p" (1.388418028593348e-25 -3.147782921235521e-15)
"VPORT1:p" (2.191493116673255e-24 2.870938412497138e-14)
"VPORT2:p" (-1.257768115230838e-10 2.886747641728828e-14)
"VSUP:p" (6.904455658895519e-09 -2.608253586663227e-14)
"freq" 8.912509381337440e-03
"vdd!" (0.000000000000000e+00 0.000000000000000e+00)
"out" (5.752332847892807e-01 -4.926746792818782e-11)
"n4" (5.752332847892807e-01 -4.926746792818782e-11)
"n3" (0.000000000000000e+00 -0.000000000000000e+00)
"in" (1.000000000000000e+00 0.000000000000000e+00)
"n2" (6.748887631467150e-01 -1.989631804811278e-11)
"n1" (8.378623377009089e-01 -1.661503142173376e-11)
"VIN:p" (1.747914738389328e-25 -3.531870527762798e-15)
"VPORT1:p" (2.758926374351960e-24 3.221245879986172e-14)
"VPORT2:p" (-1.257768115230838e-10 3.238984126932417e-14)
"VSUP:p" (6.904455658895519e-09 -2.926508657735429e-14)
"freq" 9.999999999999981e-03
"vdd!" (0.000000000000000e+00 0.000000000000000e+00)
"out" (5.752332847892807e-01 -5.527900821215687e-11)
"n4" (5.752332847892807e-01 -5.527900821215687e-11)
"n3" (0.000000000000000e+00 -0.000000000000000e+00)
"in" (1.000000000000000e+00 0.000000000000000e+00)
"n2" (6.748887631467150e-01 -2.232403602264376e-11)
"n1" (8.378623377009089e-01 -1.864237187399226e-11)
"VIN:p" (2.200494281807877e-25 -3.962823910355072e-15)
"VPORT1:p" (3.473282521940831e-24 3.614297323188652e-14)
"VPORT2:p" (-1.257768115230838e-10 3.634199963609307e-14)
"VSUP:p" (6.904455658895519e-09 -3.283596720653620e-14)
"freq" 1.122018454301961e-02
"vdd!" (0.000000000000000e+00 0.000000000000000e+00)
"out" (5.752332847892807e-01 -6.202406734954977e-11)
"n4" (5.752332847892807e-01 -6.202406734954977e-11)
"n3" (0.000000000000000e+00 -0.000000000000000e+00)
"in" (1.000000000000000e+00 0.000000000000000e+00)
"n2" (6.748887631467150e-01 -2.504798039190808e-11)
"n1" (8.378623377009089e-01 -2.091708527457919e-11)
"VIN:p" (2.770258169875690e-25 -4.446361558567461e-15)
"VPORT1:p" (4.372603629211842e-24 4.055308295951855e-14)
"VPORT2:p" (-1.257768115230838e-10 4.077639425793165e-14)
"VSUP:p" (6.904455658895519e-09 -3.684256117058770e-14)
"freq" 1.258925411794165e-02
"vdd!" (0.000000000000000e+00 0.000000000000000e+00)
"out" (5.752332847892807e-01 -6.959214817706272e-11)
"n4" (5.752332847892807e-01 -6.959214817706272e-11)
"n3" (0.000000000000000e+00 -0.000000000000000e+00)
"in" (1.000000000000000e+00 0.000000000000000e+00)
"n2" (6.748887631467150e-01 -2.810429624271462e-11)
"n1" (8.378623377009089e-01 -2.346935568828571e-11)
"VIN:p" (3.487548407286912e-25 -4.988899723211532e-15)
"VPORT1:p" (5.504781824518188e-24 4.550130745941830e-14)
"VPORT2:p" (-1.257768115230838e-10 4.575186685729191e-14)
"VSUP:p" (6.904455658895519e-09 -4.133803353714833e-14)
"freq" 1.412537544622751e-02
"vdd!" (0.000000000000000e+00 0.000000000000000e+00)
"out" (5.752332847892807e-01 -7.808367452918111e-11)
"n4" (5.752332847892807e-01 -7.808367452918111e-11)
"n3" (0.000000000000000e+00 -0.000000000000000e+00)
"in" (1.000000000000000e+00 0.000000000000000e+00)
"n2" (6.748887631467150e-01 -3.153353902949512e-11)
"n1" (8.378623377009089e-01 -2.633305019283331e-11)
"VIN:p" (4.390563314795763e-25 -5.597637556105298e-15)
"VPORT1:p" (6.930109725268606e-24 5.105330666433492e-14)
"VPORT2:p" (-1.257768115230838e-10 5.133443893264792e-14)
"VSUP:p" (6.904455658895519e-09 -4.638203649323390e-14)
"freq" 1.584893192461110e-02
"vdd!" (0.000000000000000e+00 0.000000000000000e+00)
"out" (5.752332847892807e-01 -8.761132380144937e-11)
"n4" (5.752332847892807e-01 -8.761132380144937e-11)
"n3" (0.000000000000000e+00 -0.000000000000000e+00)
"in" (1.000000000000000e+00 0.000000000000000e+00)
"n2" (6.748887631467150e-01 -3.538121272054475e-11)
"n1" (8.378623377009089e-01 -2.954616827441887e-11)
"VIN:p" (5.527391729087624e-25 -6.280652638443882e-15)
"VPORT1:p" (8.724491239662541e-24 5.728275223052118e-14)
"VPORT2:p" (-1.257768115230838e-10 5.759818782366813e-14)
"VSUP:p" (6.904455658895520e-09 -5.204150089351555e-14)
"freq" 1.778279410038919e-02
"vdd!" (0.000000000000000e+00 0.000000000000000e+00)
"out" (5.752332847892807e-01 -9.830152211105103e-11)
"n4" (5.752332847892807e-01 -9.830152211105103e-11)
"n3" (0.000000000000000e+00 -0.000000000000000e+00)
"in" (1.000000000000000e+00 0.000000000000000e+00)
"n2" (6.748887631467150e-01 -3.969837360803459e-11)
"n1" (8.378623377009089e-01 -3.315134605780916e-11)
"VIN:p" (6.958573908689305e-25 -7.047008165394355e-15)
"VPORT1:p" (1.098348372658677e-23 6.427230511585172e-14)
"VPORT2:p" (-1.257768115230838e-10 6.462622967250627e-14)
"VSUP:p" (6.904455658895521e-09 -5.839152439209656e-14)
"freq" 1.995262314968875e-02
"vdd!" (0.000000000000000e+00 0.000000000000000e+00)
"out" (5.752332847892807e-01 -1.102961218945717e-10)
"n4" (5.752332847892807e-01 -1.102961218945717e-10)
"n3" (0.000000000000000e+00 -0.000000000000000e+00)
"in" (1.000000000000000e+00 0.000000000000000e+00)
"n2" (6.748887631467150e-01 -4.454230779398879e-11)
"n1" (8.378623377009089e-01 -3.719642206181249e-11)
"VIN:p" (8.760325523496824e-25 -7.906873209189090e-15)
"VPORT1:p" (1.382738677342777e-23 7.211471244051213e-14)
"VPORT2:p" (-1.257768115230838e-10 7.251182232450914e-14)
"VSUP:p" (6.904455658895522e-09 -6.551636794275550e-14)
"freq" 2.238721138568334e-02
"vdd!" (0.000000000000000e+00 0.000000000000000e+00)
"out" (5.752332847892807e-01 -1.237542842036483e-10)
"n4" (5.752332847892807e-01 -1.237542842036483e-10)
"n3" (0.000000000000000e+00 -0.000000000000000e+00)
"in" (1.000000000000000e+00 0.000000000000000e+00)
"n2" (6.748887631467150e-01 -4.997729134205362e-11)
"n1" (8.378623377009089e-01 -4.173507198735832e-11)
"VIN:p" (1.102859641711920e-24 -8.871657656535950e-15)
"VPORT1:p" (1.740764858777478e-23 8.091403818493399e-14)
"VPORT2:p" (-1.257768115230838e-10 8.135960280316436e-14)
"VSUP:p" (6.904455658895522e-09 -7.351057389060931e-14)
"freq" 2.511886431509574e-02
"vdd!" (0.000000000000000e+00 0.000000000000000e+00)
"out" (5.752332847892807e-01 -1.388545906754234e-10)
"n4" (5.752332847892807e-01 -1.388545906754234e-10)
"n3" (0.000000000000000e+00 -0.000000000000000e+00)
"in" (1.000000000000000e+00 0.000000000000000e+00)
"n2" (6.748887631467150e-01 -5.607544318180988e-11)
"n1" (8.378623377009089e-01 -4.682752096143694e-11)
"VIN:p" (1.388418028593346e-24 -9.954163610882642e-15)
"VPORT1:p" (2.191493116673252e-23 9.078704405558966e-14)
"VPORT2:p" (-1.257768115230838e-10 9.128697577982817e-14)
"VSUP:p" (6.904455658895522e-09 -8.248022049159169e-14)
"freq" 2.818382931264447e-02
"vdd!" (0.000000000000000e+00 0.000000000000000e+00)
